#! /c/Source/iverilog-install/bin/vvp
:ivl_version "12.0 (devel)" "(s20150603-1110-g18392a46)";
:ivl_delay_selection "TYPICAL";
:vpi_time_precision - 9;
:vpi_module "D:\iverilog\lib\ivl\system.vpi";
:vpi_module "D:\iverilog\lib\ivl\vhdl_sys.vpi";
:vpi_module "D:\iverilog\lib\ivl\vhdl_textio.vpi";
:vpi_module "D:\iverilog\lib\ivl\v2005_math.vpi";
:vpi_module "D:\iverilog\lib\ivl\va_math.vpi";
S_0000022fbfa29bc0 .scope module, "AXI4_Interconnect_tb" "AXI4_Interconnect_tb" 2 7;
 .timescale -9 -9;
P_0000022fbf91e310 .param/l "PERIOD" 0 2 10, +C4<00000000000000000000000000001010>;
P_0000022fbf91e348 .param/l "addressLength" 0 2 13, +C4<00000000000000000000000000000101>;
P_0000022fbf91e380 .param/l "memDepth" 0 2 12, +C4<00000000000000000000000000100000>;
P_0000022fbf91e3b8 .param/l "memWidth" 0 2 11, +C4<00000000000000000000000000001000>;
v0000022fbfab4850_0 .net "M1_ACLK", 0 0, L_0000022fbf997bd0;  1 drivers
v0000022fbfab6ab0_0 .net "M1_ARADDR", 4 0, v0000022fbfab4fd0_0;  1 drivers
v0000022fbfab6b50_0 .net "M1_ARBURST", 1 0, v0000022fbfab3bd0_0;  1 drivers
v0000022fbfab6790_0 .net "M1_ARESET", 0 0, L_0000022fbf998110;  1 drivers
v0000022fbfab6bf0_0 .net "M1_ARID", 3 0, v0000022fbfab52f0_0;  1 drivers
v0000022fbfab6650_0 .net "M1_ARLEN", 7 0, v0000022fbfab4530_0;  1 drivers
v0000022fbfab6830_0 .net "M1_ARREADY", 0 0, L_0000022fbfaba160;  1 drivers
v0000022fbfab68d0_0 .net "M1_ARSIZE", 2 0, v0000022fbfab3e50_0;  1 drivers
v0000022fbfab6c90_0 .net "M1_ARVALID", 0 0, v0000022fbfab4cb0_0;  1 drivers
v0000022fbfab5f70_0 .net "M1_AWADDR", 4 0, v0000022fbfab39f0_0;  1 drivers
v0000022fbfab6f10_0 .net "M1_AWBURST", 1 0, v0000022fbfab38b0_0;  1 drivers
v0000022fbfab5d90_0 .net "M1_AWID", 3 0, v0000022fbfab3a90_0;  1 drivers
v0000022fbfab6a10_0 .net "M1_AWLEN", 7 0, v0000022fbfab4350_0;  1 drivers
v0000022fbfab6330_0 .net "M1_AWREADY", 0 0, L_0000022fbfabe510;  1 drivers
v0000022fbfab6e70_0 .net "M1_AWSIZE", 2 0, v0000022fbfab4f30_0;  1 drivers
v0000022fbfab6d30_0 .net "M1_AWVALID", 0 0, v0000022fbfab42b0_0;  1 drivers
v0000022fbfab5cf0_0 .net "M1_BID", 3 0, L_0000022fbfabe0b0;  1 drivers
v0000022fbfab6010_0 .net "M1_BREADY", 0 0, v0000022fbfab33b0_0;  1 drivers
v0000022fbfab5e30_0 .net "M1_BRESP", 1 0, L_0000022fbfabdc50;  1 drivers
v0000022fbfab5bb0_0 .net "M1_BVALID", 0 0, L_0000022fbfac0d10;  1 drivers
v0000022fbfab6290_0 .net "M1_RDATA", 7 0, L_0000022fbfaba340;  1 drivers
v0000022fbfab6dd0_0 .net "M1_RID", 3 0, L_0000022fbfaba520;  1 drivers
v0000022fbfab5890_0 .net "M1_RLAST", 0 0, L_0000022fbfab9f80;  1 drivers
v0000022fbfab5930_0 .net "M1_RREADY", 0 0, v0000022fbfab3b30_0;  1 drivers
v0000022fbfab59d0_0 .net "M1_RRESP", 1 0, L_0000022fbfaba480;  1 drivers
v0000022fbfab5c50_0 .net "M1_RVALID", 0 0, L_0000022fbfaba0c0;  1 drivers
v0000022fbfab60b0_0 .net "M1_WDATA", 7 0, v0000022fbfab4df0_0;  1 drivers
v0000022fbfab5ed0_0 .net "M1_WID", 3 0, v0000022fbfab3d10_0;  1 drivers
v0000022fbfab5a70_0 .net "M1_WLAST", 0 0, v0000022fbfab3130_0;  1 drivers
v0000022fbfab6510_0 .net "M1_WREADY", 0 0, L_0000022fbfabfe10;  1 drivers
v0000022fbfab5b10_0 .net "M1_WVALID", 0 0, v0000022fbfab5430_0;  1 drivers
v0000022fbfab6150_0 .net "M2_ACLK", 0 0, L_0000022fbf9990d0;  1 drivers
v0000022fbfab6970_0 .net "M2_ARADDR", 4 0, v0000022fbfaa9560_0;  1 drivers
v0000022fbfab61f0_0 .net "M2_ARBURST", 1 0, v0000022fbfaa87a0_0;  1 drivers
v0000022fbfab63d0_0 .net "M2_ARESET", 0 0, L_0000022fbf9978c0;  1 drivers
v0000022fbfab6470_0 .net "M2_ARID", 3 0, v0000022fbfaa8660_0;  1 drivers
v0000022fbfab65b0_0 .net "M2_ARLEN", 7 0, v0000022fbfaa8700_0;  1 drivers
v0000022fbfab66f0_0 .net "M2_ARREADY", 0 0, L_0000022fbfabae80;  1 drivers
v0000022fbfab8180_0 .net "M2_ARSIZE", 2 0, v0000022fbfaa8840_0;  1 drivers
v0000022fbfab9120_0 .net "M2_ARVALID", 0 0, v0000022fbfaa8980_0;  1 drivers
v0000022fbfab8a40_0 .net "M2_AWADDR", 4 0, v0000022fbfaa92e0_0;  1 drivers
v0000022fbfab7f00_0 .net "M2_AWBURST", 1 0, v0000022fbfaa8a20_0;  1 drivers
v0000022fbfab8ae0_0 .net "M2_AWID", 3 0, v0000022fbfaa8fc0_0;  1 drivers
v0000022fbfab9620_0 .net "M2_AWLEN", 7 0, v0000022fbfaa8ac0_0;  1 drivers
v0000022fbfab7d20_0 .net "M2_AWREADY", 0 0, L_0000022fbfabf690;  1 drivers
v0000022fbfab8040_0 .net "M2_AWSIZE", 2 0, v0000022fbfaa8b60_0;  1 drivers
v0000022fbfab8360_0 .net "M2_AWVALID", 0 0, v0000022fbfaa97e0_0;  1 drivers
v0000022fbfab7e60_0 .net "M2_BID", 3 0, L_0000022fbfac1030;  1 drivers
v0000022fbfab9760_0 .net "M2_BREADY", 0 0, v0000022fbfaa9880_0;  1 drivers
v0000022fbfab9440_0 .net "M2_BRESP", 1 0, L_0000022fbfac0bd0;  1 drivers
v0000022fbfab7be0_0 .net "M2_BVALID", 0 0, L_0000022fbfac0310;  1 drivers
v0000022fbfab7b40_0 .net "M2_RDATA", 7 0, L_0000022fbfabe290;  1 drivers
v0000022fbfab91c0_0 .net "M2_RID", 3 0, L_0000022fbfaba7a0;  1 drivers
v0000022fbfab8b80_0 .net "M2_RLAST", 0 0, L_0000022fbfabe970;  1 drivers
v0000022fbfab8c20_0 .net "M2_RREADY", 0 0, v0000022fbfaa96a0_0;  1 drivers
v0000022fbfab9800_0 .net "M2_RRESP", 1 0, L_0000022fbfabf410;  1 drivers
v0000022fbfab8400_0 .net "M2_RVALID", 0 0, L_0000022fbfabe150;  1 drivers
v0000022fbfab84a0_0 .net "M2_WDATA", 7 0, v0000022fbfaa9740_0;  1 drivers
v0000022fbfab8900_0 .net "M2_WID", 3 0, v0000022fbfaa8ca0_0;  1 drivers
v0000022fbfab7820_0 .net "M2_WLAST", 0 0, v0000022fbfaa9920_0;  1 drivers
v0000022fbfab93a0_0 .net "M2_WREADY", 0 0, L_0000022fbfabff50;  1 drivers
v0000022fbfab82c0_0 .net "M2_WVALID", 0 0, v0000022fbfaa8340_0;  1 drivers
v0000022fbfab7dc0_0 .net "Master_1_Release", 0 0, v0000022fbfab3450_0;  1 drivers
v0000022fbfab8ea0_0 .net "Master_1_Set", 0 0, L_0000022fbf997f50;  1 drivers
v0000022fbfab8860_0 .net "Master_2_Release", 0 0, v0000022fbfaa91a0_0;  1 drivers
v0000022fbfab9bc0_0 .net "Master_2_Set", 0 0, L_0000022fbf997fc0;  1 drivers
v0000022fbfab8f40_0 .net "S_ACLK", 0 0, L_0000022fbf997e00;  1 drivers
v0000022fbfab87c0_0 .net "S_ARADDR", 4 0, L_0000022fbfaba980;  1 drivers
v0000022fbfab98a0_0 .net "S_ARBURST", 1 0, L_0000022fbfaba020;  1 drivers
v0000022fbfab9940_0 .net "S_ARESET", 0 0, L_0000022fbf9983b0;  1 drivers
v0000022fbfab8cc0_0 .net "S_ARID", 3 0, L_0000022fbfabb240;  1 drivers
v0000022fbfab99e0_0 .net "S_ARLEN", 7 0, L_0000022fbfabad40;  1 drivers
v0000022fbfab89a0_0 .net "S_ARREADY", 0 0, v0000022fbfa10c10_0;  1 drivers
v0000022fbfab7960_0 .net "S_ARSIZE", 2 0, L_0000022fbfabb1a0;  1 drivers
v0000022fbfab8540_0 .net "S_ARVALID", 0 0, L_0000022fbfabab60;  1 drivers
v0000022fbfab8220_0 .net "S_AWADDR", 4 0, L_0000022fbfabfd70;  1 drivers
v0000022fbfab85e0_0 .net "S_AWBURST", 1 0, L_0000022fbfabe330;  1 drivers
v0000022fbfab8680_0 .net "S_AWID", 3 0, L_0000022fbfabded0;  1 drivers
v0000022fbfab8720_0 .net "S_AWLEN", 7 0, L_0000022fbfabefb0;  1 drivers
v0000022fbfab9260_0 .net "S_AWREADY", 0 0, v0000022fbfa11a70_0;  1 drivers
v0000022fbfab94e0_0 .net "S_AWSIZE", 2 0, L_0000022fbfabe470;  1 drivers
v0000022fbfab7aa0_0 .net "S_AWVALID", 0 0, L_0000022fbfabec90;  1 drivers
v0000022fbfab9b20_0 .net "S_BID", 3 0, v0000022fbfa10490_0;  1 drivers
v0000022fbfab76e0_0 .net "S_BREADY", 0 0, L_0000022fbfac0e50;  1 drivers
v0000022fbfab9a80_0 .net "S_BRESP", 1 0, v0000022fbfa11250_0;  1 drivers
v0000022fbfab96c0_0 .net "S_BVALID", 0 0, v0000022fbfa11bb0_0;  1 drivers
v0000022fbfab7780_0 .net "S_RDATA", 7 0, v0000022fbfa10170_0;  1 drivers
v0000022fbfab7fa0_0 .net "S_RID", 3 0, v0000022fbfa10530_0;  1 drivers
v0000022fbfab9da0_0 .net "S_RLAST", 0 0, v0000022fbfa10210_0;  1 drivers
v0000022fbfab9c60_0 .net "S_RREADY", 0 0, L_0000022fbfac0270;  1 drivers
v0000022fbfab78c0_0 .net "S_RRESP", 1 0, v0000022fbfa112f0_0;  1 drivers
v0000022fbfab7a00_0 .net "S_RVALID", 0 0, v0000022fbfa10cb0_0;  1 drivers
v0000022fbfab9e40_0 .net "S_WDATA", 7 0, L_0000022fbfabf910;  1 drivers
v0000022fbfab8d60_0 .net "S_WID", 3 0, L_0000022fbfabf190;  1 drivers
v0000022fbfab8e00_0 .net "S_WLAST", 0 0, L_0000022fbfabf730;  1 drivers
v0000022fbfab8fe0_0 .net "S_WREADY", 0 0, v0000022fbfa114d0_0;  1 drivers
v0000022fbfab9300_0 .net "S_WVALID", 0 0, L_0000022fbfac0090;  1 drivers
v0000022fbfab80e0_0 .var "clk", 0 0;
v0000022fbfab9080_0 .var "rst", 0 0;
S_0000022fbfa46190 .scope begin, "$ivl_for_loop0" "$ivl_for_loop0" 2 343, 2 343 0, S_0000022fbfa29bc0;
 .timescale -9 -9;
v0000022fbfa11d90_0 .var/i "index", 31 0;
S_0000022fbf97ebe0 .scope module, "u_AXI4_BRAM_Controller" "AXI4_BRAM_Controller" 2 293, 3 8 0, S_0000022fbfa29bc0;
 .timescale -9 -9;
    .port_info 0 /INPUT 1 "ACLK";
    .port_info 1 /INPUT 1 "ARESET";
    .port_info 2 /INPUT 4 "ARID";
    .port_info 3 /INPUT 5 "ARADDR";
    .port_info 4 /INPUT 2 "ARBURST";
    .port_info 5 /INPUT 1 "ARVALID";
    .port_info 6 /OUTPUT 1 "ARREADY";
    .port_info 7 /INPUT 8 "ARLEN";
    .port_info 8 /INPUT 3 "ARSIZE";
    .port_info 9 /OUTPUT 4 "RID";
    .port_info 10 /OUTPUT 8 "RDATA";
    .port_info 11 /OUTPUT 1 "RLAST";
    .port_info 12 /OUTPUT 1 "RVALID";
    .port_info 13 /INPUT 1 "RREADY";
    .port_info 14 /OUTPUT 2 "RRESP";
    .port_info 15 /INPUT 4 "AWID";
    .port_info 16 /INPUT 5 "AWADDR";
    .port_info 17 /INPUT 2 "AWBURST";
    .port_info 18 /INPUT 1 "AWVALID";
    .port_info 19 /OUTPUT 1 "AWREADY";
    .port_info 20 /INPUT 8 "AWLEN";
    .port_info 21 /INPUT 3 "AWSIZE";
    .port_info 22 /INPUT 4 "WID";
    .port_info 23 /INPUT 8 "WDATA";
    .port_info 24 /INPUT 1 "WLAST";
    .port_info 25 /INPUT 1 "WVALID";
    .port_info 26 /OUTPUT 1 "WREADY";
    .port_info 27 /OUTPUT 4 "BID";
    .port_info 28 /OUTPUT 2 "BRESP";
    .port_info 29 /OUTPUT 1 "BVALID";
    .port_info 30 /INPUT 1 "BREADY";
P_0000022fbfa053e0 .param/l "addressLength" 0 3 17, +C4<00000000000000000000000000000101>;
P_0000022fbfa05418 .param/l "memDepth" 0 3 16, +C4<00000000000000000000000000100000>;
P_0000022fbfa05450 .param/l "memWidth" 0 3 15, +C4<00000000000000000000000000001000>;
P_0000022fbfa05488 .param/l "readAddressEnd" 0 3 19, +C4<00000000000000000000000000001001>;
P_0000022fbfa054c0 .param/l "readAddressStart" 0 3 18, +C4<00000000000000000000000000000000>;
v0000022fbfa11750_0 .net "ACLK", 0 0, L_0000022fbf997e00;  alias, 1 drivers
v0000022fbfa116b0_0 .net "ARADDR", 4 0, L_0000022fbfaba980;  alias, 1 drivers
v0000022fbfa111b0_0 .net "ARBURST", 1 0, L_0000022fbfaba020;  alias, 1 drivers
v0000022fbfa11ed0_0 .net "ARESET", 0 0, L_0000022fbf9983b0;  alias, 1 drivers
v0000022fbfa10710_0 .net "ARID", 3 0, L_0000022fbfabb240;  alias, 1 drivers
v0000022fbfa10850_0 .net "ARLEN", 7 0, L_0000022fbfabad40;  alias, 1 drivers
v0000022fbfa10c10_0 .var "ARREADY", 0 0;
v0000022fbfa10df0_0 .net "ARSIZE", 2 0, L_0000022fbfabb1a0;  alias, 1 drivers
v0000022fbfa108f0_0 .net "ARVALID", 0 0, L_0000022fbfabab60;  alias, 1 drivers
v0000022fbfa10e90_0 .net "AWADDR", 4 0, L_0000022fbfabfd70;  alias, 1 drivers
v0000022fbfa11f70_0 .net "AWBURST", 1 0, L_0000022fbfabe330;  alias, 1 drivers
v0000022fbfa11cf0_0 .net "AWID", 3 0, L_0000022fbfabded0;  alias, 1 drivers
v0000022fbfa119d0_0 .net "AWLEN", 7 0, L_0000022fbfabefb0;  alias, 1 drivers
v0000022fbfa11a70_0 .var "AWREADY", 0 0;
v0000022fbfa103f0_0 .net "AWSIZE", 2 0, L_0000022fbfabe470;  alias, 1 drivers
v0000022fbfa10ad0_0 .net "AWVALID", 0 0, L_0000022fbfabec90;  alias, 1 drivers
v0000022fbfa10490_0 .var "BID", 3 0;
v0000022fbfa100d0 .array "BRAM", 31 0, 7 0;
v0000022fbfa10d50_0 .net "BREADY", 0 0, L_0000022fbfac0e50;  alias, 1 drivers
v0000022fbfa11250_0 .var "BRESP", 1 0;
v0000022fbfa11bb0_0 .var "BVALID", 0 0;
v0000022fbfa10170_0 .var "RDATA", 7 0;
v0000022fbfa10530_0 .var "RID", 3 0;
v0000022fbfa10210_0 .var "RLAST", 0 0;
v0000022fbfa102b0_0 .net "RREADY", 0 0, L_0000022fbfac0270;  alias, 1 drivers
v0000022fbfa112f0_0 .var "RRESP", 1 0;
v0000022fbfa10cb0_0 .var "RVALID", 0 0;
v0000022fbfa11390_0 .net "WDATA", 7 0, L_0000022fbfabf910;  alias, 1 drivers
v0000022fbfa105d0_0 .net "WID", 3 0, L_0000022fbfabf190;  alias, 1 drivers
v0000022fbfa11430_0 .net "WLAST", 0 0, L_0000022fbfabf730;  alias, 1 drivers
v0000022fbfa114d0_0 .var "WREADY", 0 0;
v0000022fbf9f7810_0 .net "WVALID", 0 0, L_0000022fbfac0090;  alias, 1 drivers
v0000022fbf9f6ff0_0 .var "firstTimeInitBRAMAddress", 0 0;
v0000022fbf9f6910_0 .var "readAddressBRAM", 4 0;
v0000022fbf9f6050_0 .var "readAddressChannelEnabled", 0 0;
v0000022fbf9f7090_0 .var "readBurstTypeState", 2 0;
v0000022fbf9f6af0_0 .var "readChannelEnabled", 0 0;
v0000022fbf9f7130_0 .var "readEnable", 0 0;
v0000022fbf9f79f0_0 .var "readStatusRRESP", 1 0;
v0000022fbf9f6a50_0 .var "readTransactionID", 3 0;
v0000022fbf9f7310_0 .var "writeAddressBRAM", 4 0;
v0000022fbf9f7c70_0 .var "writeAddressChannelEnabled", 0 0;
v0000022fbf9f7d10_0 .var "writeBurstTypeState", 2 0;
v0000022fbf9f7db0_0 .var "writeChannelEnabled", 0 0;
v0000022fbf9f7e50_0 .var "writeEnable", 0 0;
v0000022fbf9f60f0_0 .var "writeResponseChannelEnabled", 0 0;
v0000022fbf9f6230_0 .var "writeStatusBRESP", 1 0;
v0000022fbf9f6c30_0 .var "writeTransactionID", 3 0;
E_0000022fbfa37fd0 .event posedge, v0000022fbfa11750_0;
S_0000022fbf97ed70 .scope generate, "register[0]" "register[0]" 3 89, 3 89 0, S_0000022fbf97ebe0;
 .timescale -9 -9;
P_0000022fbfa370d0 .param/l "index" 0 3 89, +C4<00>;
v0000022fbfa100d0_0 .array/port v0000022fbfa100d0, 0;
L_0000022fbf998a40 .functor BUFZ 8, v0000022fbfa100d0_0, C4<00000000>, C4<00000000>, C4<00000000>;
v0000022fbfa10990_0 .net "wireOfBRAM", 7 0, L_0000022fbf998a40;  1 drivers
S_0000022fbf8b4fd0 .scope generate, "register[1]" "register[1]" 3 89, 3 89 0, S_0000022fbf97ebe0;
 .timescale -9 -9;
P_0000022fbfa37510 .param/l "index" 0 3 89, +C4<01>;
v0000022fbfa100d0_1 .array/port v0000022fbfa100d0, 1;
L_0000022fbf997c40 .functor BUFZ 8, v0000022fbfa100d0_1, C4<00000000>, C4<00000000>, C4<00000000>;
v0000022fbfa11930_0 .net "wireOfBRAM", 7 0, L_0000022fbf997c40;  1 drivers
S_0000022fbf984090 .scope generate, "register[2]" "register[2]" 3 89, 3 89 0, S_0000022fbf97ebe0;
 .timescale -9 -9;
P_0000022fbfa37610 .param/l "index" 0 3 89, +C4<010>;
v0000022fbfa100d0_2 .array/port v0000022fbfa100d0, 2;
L_0000022fbf9988f0 .functor BUFZ 8, v0000022fbfa100d0_2, C4<00000000>, C4<00000000>, C4<00000000>;
v0000022fbfa11890_0 .net "wireOfBRAM", 7 0, L_0000022fbf9988f0;  1 drivers
S_0000022fbf984220 .scope generate, "register[3]" "register[3]" 3 89, 3 89 0, S_0000022fbf97ebe0;
 .timescale -9 -9;
P_0000022fbfa37a50 .param/l "index" 0 3 89, +C4<011>;
v0000022fbfa100d0_3 .array/port v0000022fbfa100d0, 3;
L_0000022fbf9981f0 .functor BUFZ 8, v0000022fbfa100d0_3, C4<00000000>, C4<00000000>, C4<00000000>;
v0000022fbfa10f30_0 .net "wireOfBRAM", 7 0, L_0000022fbf9981f0;  1 drivers
S_0000022fbf9843b0 .scope generate, "register[4]" "register[4]" 3 89, 3 89 0, S_0000022fbf97ebe0;
 .timescale -9 -9;
P_0000022fbfa37a90 .param/l "index" 0 3 89, +C4<0100>;
v0000022fbfa100d0_4 .array/port v0000022fbfa100d0, 4;
L_0000022fbf998260 .functor BUFZ 8, v0000022fbfa100d0_4, C4<00000000>, C4<00000000>, C4<00000000>;
v0000022fbfa10b70_0 .net "wireOfBRAM", 7 0, L_0000022fbf998260;  1 drivers
S_0000022fbf91dd30 .scope generate, "register[5]" "register[5]" 3 89, 3 89 0, S_0000022fbf97ebe0;
 .timescale -9 -9;
P_0000022fbfa376d0 .param/l "index" 0 3 89, +C4<0101>;
v0000022fbfa100d0_5 .array/port v0000022fbfa100d0, 5;
L_0000022fbf997cb0 .functor BUFZ 8, v0000022fbfa100d0_5, C4<00000000>, C4<00000000>, C4<00000000>;
v0000022fbfa10350_0 .net "wireOfBRAM", 7 0, L_0000022fbf997cb0;  1 drivers
S_0000022fbf91dec0 .scope generate, "register[6]" "register[6]" 3 89, 3 89 0, S_0000022fbf97ebe0;
 .timescale -9 -9;
P_0000022fbfa37650 .param/l "index" 0 3 89, +C4<0110>;
v0000022fbfa100d0_6 .array/port v0000022fbfa100d0, 6;
L_0000022fbf998ce0 .functor BUFZ 8, v0000022fbfa100d0_6, C4<00000000>, C4<00000000>, C4<00000000>;
v0000022fbfa11e30_0 .net "wireOfBRAM", 7 0, L_0000022fbf998ce0;  1 drivers
S_0000022fbf91e050 .scope generate, "register[7]" "register[7]" 3 89, 3 89 0, S_0000022fbf97ebe0;
 .timescale -9 -9;
P_0000022fbfa37b50 .param/l "index" 0 3 89, +C4<0111>;
v0000022fbfa100d0_7 .array/port v0000022fbfa100d0, 7;
L_0000022fbf997930 .functor BUFZ 8, v0000022fbfa100d0_7, C4<00000000>, C4<00000000>, C4<00000000>;
v0000022fbfa11c50_0 .net "wireOfBRAM", 7 0, L_0000022fbf997930;  1 drivers
S_0000022fbf852f90 .scope generate, "register[8]" "register[8]" 3 89, 3 89 0, S_0000022fbf97ebe0;
 .timescale -9 -9;
P_0000022fbfa37990 .param/l "index" 0 3 89, +C4<01000>;
v0000022fbfa100d0_8 .array/port v0000022fbfa100d0, 8;
L_0000022fbf997620 .functor BUFZ 8, v0000022fbfa100d0_8, C4<00000000>, C4<00000000>, C4<00000000>;
v0000022fbfa11610_0 .net "wireOfBRAM", 7 0, L_0000022fbf997620;  1 drivers
S_0000022fbf853120 .scope generate, "register[9]" "register[9]" 3 89, 3 89 0, S_0000022fbf97ebe0;
 .timescale -9 -9;
P_0000022fbfa379d0 .param/l "index" 0 3 89, +C4<01001>;
v0000022fbfa100d0_9 .array/port v0000022fbfa100d0, 9;
L_0000022fbf998e30 .functor BUFZ 8, v0000022fbfa100d0_9, C4<00000000>, C4<00000000>, C4<00000000>;
v0000022fbfa10a30_0 .net "wireOfBRAM", 7 0, L_0000022fbf998e30;  1 drivers
S_0000022fbf8532b0 .scope module, "u_AXI4_Interconnect" "AXI4_Interconnect" 2 118, 4 7 0, S_0000022fbfa29bc0;
 .timescale -9 -9;
    .port_info 0 /INPUT 1 "clk";
    .port_info 1 /INPUT 1 "rst";
    .port_info 2 /OUTPUT 1 "M1_ACLK";
    .port_info 3 /OUTPUT 1 "M1_ARESET";
    .port_info 4 /OUTPUT 1 "Master_1_Set";
    .port_info 5 /INPUT 1 "Master_1_Release";
    .port_info 6 /INPUT 4 "M1_ARID";
    .port_info 7 /INPUT 5 "M1_ARADDR";
    .port_info 8 /INPUT 2 "M1_ARBURST";
    .port_info 9 /INPUT 1 "M1_ARVALID";
    .port_info 10 /OUTPUT 1 "M1_ARREADY";
    .port_info 11 /INPUT 8 "M1_ARLEN";
    .port_info 12 /INPUT 3 "M1_ARSIZE";
    .port_info 13 /OUTPUT 4 "M1_RID";
    .port_info 14 /OUTPUT 8 "M1_RDATA";
    .port_info 15 /OUTPUT 1 "M1_RLAST";
    .port_info 16 /OUTPUT 1 "M1_RVALID";
    .port_info 17 /INPUT 1 "M1_RREADY";
    .port_info 18 /OUTPUT 2 "M1_RRESP";
    .port_info 19 /INPUT 4 "M1_AWID";
    .port_info 20 /INPUT 5 "M1_AWADDR";
    .port_info 21 /INPUT 2 "M1_AWBURST";
    .port_info 22 /INPUT 1 "M1_AWVALID";
    .port_info 23 /OUTPUT 1 "M1_AWREADY";
    .port_info 24 /INPUT 8 "M1_AWLEN";
    .port_info 25 /INPUT 3 "M1_AWSIZE";
    .port_info 26 /INPUT 4 "M1_WID";
    .port_info 27 /INPUT 8 "M1_WDATA";
    .port_info 28 /INPUT 1 "M1_WLAST";
    .port_info 29 /INPUT 1 "M1_WVALID";
    .port_info 30 /OUTPUT 1 "M1_WREADY";
    .port_info 31 /OUTPUT 4 "M1_BID";
    .port_info 32 /OUTPUT 2 "M1_BRESP";
    .port_info 33 /OUTPUT 1 "M1_BVALID";
    .port_info 34 /INPUT 1 "M1_BREADY";
    .port_info 35 /OUTPUT 1 "M2_ACLK";
    .port_info 36 /OUTPUT 1 "M2_ARESET";
    .port_info 37 /OUTPUT 1 "Master_2_Set";
    .port_info 38 /INPUT 1 "Master_2_Release";
    .port_info 39 /INPUT 4 "M2_ARID";
    .port_info 40 /INPUT 5 "M2_ARADDR";
    .port_info 41 /INPUT 2 "M2_ARBURST";
    .port_info 42 /INPUT 1 "M2_ARVALID";
    .port_info 43 /OUTPUT 1 "M2_ARREADY";
    .port_info 44 /INPUT 8 "M2_ARLEN";
    .port_info 45 /INPUT 3 "M2_ARSIZE";
    .port_info 46 /OUTPUT 4 "M2_RID";
    .port_info 47 /OUTPUT 8 "M2_RDATA";
    .port_info 48 /OUTPUT 1 "M2_RLAST";
    .port_info 49 /OUTPUT 1 "M2_RVALID";
    .port_info 50 /INPUT 1 "M2_RREADY";
    .port_info 51 /OUTPUT 2 "M2_RRESP";
    .port_info 52 /INPUT 4 "M2_AWID";
    .port_info 53 /INPUT 5 "M2_AWADDR";
    .port_info 54 /INPUT 2 "M2_AWBURST";
    .port_info 55 /INPUT 1 "M2_AWVALID";
    .port_info 56 /OUTPUT 1 "M2_AWREADY";
    .port_info 57 /INPUT 8 "M2_AWLEN";
    .port_info 58 /INPUT 3 "M2_AWSIZE";
    .port_info 59 /INPUT 4 "M2_WID";
    .port_info 60 /INPUT 8 "M2_WDATA";
    .port_info 61 /INPUT 1 "M2_WLAST";
    .port_info 62 /INPUT 1 "M2_WVALID";
    .port_info 63 /OUTPUT 1 "M2_WREADY";
    .port_info 64 /OUTPUT 4 "M2_BID";
    .port_info 65 /OUTPUT 2 "M2_BRESP";
    .port_info 66 /OUTPUT 1 "M2_BVALID";
    .port_info 67 /INPUT 1 "M2_BREADY";
    .port_info 68 /OUTPUT 1 "S_ACLK";
    .port_info 69 /OUTPUT 1 "S_ARESET";
    .port_info 70 /OUTPUT 4 "S_ARID";
    .port_info 71 /OUTPUT 5 "S_ARADDR";
    .port_info 72 /OUTPUT 2 "S_ARBURST";
    .port_info 73 /OUTPUT 1 "S_ARVALID";
    .port_info 74 /INPUT 1 "S_ARREADY";
    .port_info 75 /OUTPUT 8 "S_ARLEN";
    .port_info 76 /OUTPUT 3 "S_ARSIZE";
    .port_info 77 /INPUT 4 "S_RID";
    .port_info 78 /INPUT 8 "S_RDATA";
    .port_info 79 /INPUT 1 "S_RLAST";
    .port_info 80 /INPUT 1 "S_RVALID";
    .port_info 81 /OUTPUT 1 "S_RREADY";
    .port_info 82 /INPUT 2 "S_RRESP";
    .port_info 83 /OUTPUT 4 "S_AWID";
    .port_info 84 /OUTPUT 5 "S_AWADDR";
    .port_info 85 /OUTPUT 2 "S_AWBURST";
    .port_info 86 /OUTPUT 1 "S_AWVALID";
    .port_info 87 /INPUT 1 "S_AWREADY";
    .port_info 88 /OUTPUT 8 "S_AWLEN";
    .port_info 89 /OUTPUT 3 "S_AWSIZE";
    .port_info 90 /OUTPUT 4 "S_WID";
    .port_info 91 /OUTPUT 8 "S_WDATA";
    .port_info 92 /OUTPUT 1 "S_WLAST";
    .port_info 93 /OUTPUT 1 "S_WVALID";
    .port_info 94 /INPUT 1 "S_WREADY";
    .port_info 95 /INPUT 4 "S_BID";
    .port_info 96 /INPUT 2 "S_BRESP";
    .port_info 97 /INPUT 1 "S_BVALID";
    .port_info 98 /OUTPUT 1 "S_BREADY";
P_0000022fbf884a10 .param/l "addressLength" 0 4 32, +C4<00000000000000000000000000000101>;
P_0000022fbf884a48 .param/l "memDepth" 0 4 31, +C4<00000000000000000000000000100000>;
P_0000022fbf884a80 .param/l "memWidth" 0 4 30, +C4<00000000000000000000000000001000>;
P_0000022fbf884ab8 .param/l "totalMasters" 1 4 163, +C4<00000000000000000000000000000011>;
v0000022fbfaa8480_1 .array/port v0000022fbfaa8480, 1;
L_0000022fbf997f50 .functor BUFZ 1, v0000022fbfaa8480_1, C4<0>, C4<0>, C4<0>;
v0000022fbfaa8480_2 .array/port v0000022fbfaa8480, 2;
L_0000022fbf997fc0 .functor BUFZ 1, v0000022fbfaa8480_2, C4<0>, C4<0>, C4<0>;
L_0000022fbf997e00 .functor BUFZ 1, v0000022fbfab80e0_0, C4<0>, C4<0>, C4<0>;
L_0000022fbf9983b0 .functor BUFZ 1, v0000022fbfab9080_0, C4<0>, C4<0>, C4<0>;
L_0000022fbf997bd0 .functor BUFZ 1, v0000022fbfab80e0_0, C4<0>, C4<0>, C4<0>;
L_0000022fbf998110 .functor BUFZ 1, v0000022fbfab9080_0, C4<0>, C4<0>, C4<0>;
L_0000022fbf9990d0 .functor BUFZ 1, v0000022fbfab80e0_0, C4<0>, C4<0>, C4<0>;
L_0000022fbf9978c0 .functor BUFZ 1, v0000022fbfab9080_0, C4<0>, C4<0>, C4<0>;
v0000022fbf9f6370_0 .net "M1_ACLK", 0 0, L_0000022fbf997bd0;  alias, 1 drivers
v0000022fbf9f6cd0_0 .net "M1_ARADDR", 4 0, v0000022fbfab4fd0_0;  alias, 1 drivers
v0000022fbf8b2210_0 .net "M1_ARBURST", 1 0, v0000022fbfab3bd0_0;  alias, 1 drivers
v0000022fbf8b1c70_0 .net "M1_ARESET", 0 0, L_0000022fbf998110;  alias, 1 drivers
v0000022fbf8b1810_0 .net "M1_ARID", 3 0, v0000022fbfab52f0_0;  alias, 1 drivers
v0000022fbf8b1950_0 .net "M1_ARLEN", 7 0, v0000022fbfab4530_0;  alias, 1 drivers
v0000022fbf8b1d10_0 .net "M1_ARREADY", 0 0, L_0000022fbfaba160;  alias, 1 drivers
v0000022fbf8b11d0_0 .net "M1_ARSIZE", 2 0, v0000022fbfab3e50_0;  alias, 1 drivers
v0000022fbf8b1db0_0 .net "M1_ARVALID", 0 0, v0000022fbfab4cb0_0;  alias, 1 drivers
v0000022fbf8b2030_0 .net "M1_AWADDR", 4 0, v0000022fbfab39f0_0;  alias, 1 drivers
v0000022fbf8b18b0_0 .net "M1_AWBURST", 1 0, v0000022fbfab38b0_0;  alias, 1 drivers
v0000022fbf8b2170_0 .net "M1_AWID", 3 0, v0000022fbfab3a90_0;  alias, 1 drivers
v0000022fbf8b1270_0 .net "M1_AWLEN", 7 0, v0000022fbfab4350_0;  alias, 1 drivers
v0000022fbf8b23f0_0 .net "M1_AWREADY", 0 0, L_0000022fbfabe510;  alias, 1 drivers
v0000022fbf8b13b0_0 .net "M1_AWSIZE", 2 0, v0000022fbfab4f30_0;  alias, 1 drivers
v0000022fbf8b2490_0 .net "M1_AWVALID", 0 0, v0000022fbfab42b0_0;  alias, 1 drivers
v0000022fbf8b07d0_0 .net "M1_BID", 3 0, L_0000022fbfabe0b0;  alias, 1 drivers
v0000022fbf8b0a50_0 .net "M1_BREADY", 0 0, v0000022fbfab33b0_0;  alias, 1 drivers
v0000022fbf8b0af0_0 .net "M1_BRESP", 1 0, L_0000022fbfabdc50;  alias, 1 drivers
v0000022fbf8b0b90_0 .net "M1_BVALID", 0 0, L_0000022fbfac0d10;  alias, 1 drivers
v0000022fbfa98670_0 .net "M1_RDATA", 7 0, L_0000022fbfaba340;  alias, 1 drivers
v0000022fbfa979f0_0 .net "M1_RID", 3 0, L_0000022fbfaba520;  alias, 1 drivers
v0000022fbfa98350_0 .net "M1_RLAST", 0 0, L_0000022fbfab9f80;  alias, 1 drivers
v0000022fbfa97db0_0 .net "M1_RREADY", 0 0, v0000022fbfab3b30_0;  alias, 1 drivers
v0000022fbfa987b0_0 .net "M1_RRESP", 1 0, L_0000022fbfaba480;  alias, 1 drivers
v0000022fbfa97a90_0 .net "M1_RVALID", 0 0, L_0000022fbfaba0c0;  alias, 1 drivers
v0000022fbfa98b70_0 .net "M1_WDATA", 7 0, v0000022fbfab4df0_0;  alias, 1 drivers
v0000022fbfa985d0_0 .net "M1_WID", 3 0, v0000022fbfab3d10_0;  alias, 1 drivers
v0000022fbfa982b0_0 .net "M1_WLAST", 0 0, v0000022fbfab3130_0;  alias, 1 drivers
v0000022fbfa97310_0 .net "M1_WREADY", 0 0, L_0000022fbfabfe10;  alias, 1 drivers
v0000022fbfa97090_0 .net "M1_WVALID", 0 0, v0000022fbfab5430_0;  alias, 1 drivers
v0000022fbfa973b0_0 .net "M2_ACLK", 0 0, L_0000022fbf9990d0;  alias, 1 drivers
v0000022fbfa98710_0 .net "M2_ARADDR", 4 0, v0000022fbfaa9560_0;  alias, 1 drivers
v0000022fbfa98850_0 .net "M2_ARBURST", 1 0, v0000022fbfaa87a0_0;  alias, 1 drivers
v0000022fbfa98d50_0 .net "M2_ARESET", 0 0, L_0000022fbf9978c0;  alias, 1 drivers
v0000022fbfa971d0_0 .net "M2_ARID", 3 0, v0000022fbfaa8660_0;  alias, 1 drivers
v0000022fbfa983f0_0 .net "M2_ARLEN", 7 0, v0000022fbfaa8700_0;  alias, 1 drivers
v0000022fbfa97810_0 .net "M2_ARREADY", 0 0, L_0000022fbfabae80;  alias, 1 drivers
v0000022fbfa96eb0_0 .net "M2_ARSIZE", 2 0, v0000022fbfaa8840_0;  alias, 1 drivers
v0000022fbfa97630_0 .net "M2_ARVALID", 0 0, v0000022fbfaa8980_0;  alias, 1 drivers
v0000022fbfa988f0_0 .net "M2_AWADDR", 4 0, v0000022fbfaa92e0_0;  alias, 1 drivers
v0000022fbfa97e50_0 .net "M2_AWBURST", 1 0, v0000022fbfaa8a20_0;  alias, 1 drivers
v0000022fbfa96f50_0 .net "M2_AWID", 3 0, v0000022fbfaa8fc0_0;  alias, 1 drivers
v0000022fbfa98ad0_0 .net "M2_AWLEN", 7 0, v0000022fbfaa8ac0_0;  alias, 1 drivers
v0000022fbfa976d0_0 .net "M2_AWREADY", 0 0, L_0000022fbfabf690;  alias, 1 drivers
v0000022fbfa97b30_0 .net "M2_AWSIZE", 2 0, v0000022fbfaa8b60_0;  alias, 1 drivers
v0000022fbfa97d10_0 .net "M2_AWVALID", 0 0, v0000022fbfaa97e0_0;  alias, 1 drivers
v0000022fbfa97770_0 .net "M2_BID", 3 0, L_0000022fbfac1030;  alias, 1 drivers
v0000022fbfa98c10_0 .net "M2_BREADY", 0 0, v0000022fbfaa9880_0;  alias, 1 drivers
v0000022fbfa974f0_0 .net "M2_BRESP", 1 0, L_0000022fbfac0bd0;  alias, 1 drivers
v0000022fbfa97270_0 .net "M2_BVALID", 0 0, L_0000022fbfac0310;  alias, 1 drivers
v0000022fbfa97bd0_0 .net "M2_RDATA", 7 0, L_0000022fbfabe290;  alias, 1 drivers
v0000022fbfa978b0_0 .net "M2_RID", 3 0, L_0000022fbfaba7a0;  alias, 1 drivers
v0000022fbfa97130_0 .net "M2_RLAST", 0 0, L_0000022fbfabe970;  alias, 1 drivers
v0000022fbfa98490_0 .net "M2_RREADY", 0 0, v0000022fbfaa96a0_0;  alias, 1 drivers
v0000022fbfa98990_0 .net "M2_RRESP", 1 0, L_0000022fbfabf410;  alias, 1 drivers
v0000022fbfa98030_0 .net "M2_RVALID", 0 0, L_0000022fbfabe150;  alias, 1 drivers
v0000022fbfa98530_0 .net "M2_WDATA", 7 0, v0000022fbfaa9740_0;  alias, 1 drivers
v0000022fbfa97c70_0 .net "M2_WID", 3 0, v0000022fbfaa8ca0_0;  alias, 1 drivers
v0000022fbfa97ef0_0 .net "M2_WLAST", 0 0, v0000022fbfaa9920_0;  alias, 1 drivers
v0000022fbfa98a30_0 .net "M2_WREADY", 0 0, L_0000022fbfabff50;  alias, 1 drivers
v0000022fbfa980d0_0 .net "M2_WVALID", 0 0, v0000022fbfaa8340_0;  alias, 1 drivers
v0000022fbfa98cb0_0 .var "Master_1", 2 0;
v0000022fbfa96ff0_0 .net "Master_1_Release", 0 0, v0000022fbfab3450_0;  alias, 1 drivers
v0000022fbfa97590_0 .net "Master_1_Set", 0 0, L_0000022fbf997f50;  alias, 1 drivers
v0000022fbfa97450_0 .var "Master_2", 2 0;
v0000022fbfa98210_0 .net "Master_2_Release", 0 0, v0000022fbfaa91a0_0;  alias, 1 drivers
v0000022fbfa97950_0 .net "Master_2_Set", 0 0, L_0000022fbf997fc0;  alias, 1 drivers
v0000022fbfa97f90_0 .net "S_ACLK", 0 0, L_0000022fbf997e00;  alias, 1 drivers
v0000022fbfa98170_0 .net "S_ARADDR", 4 0, L_0000022fbfaba980;  alias, 1 drivers
v0000022fbfa9a1d0_0 .net "S_ARBURST", 1 0, L_0000022fbfaba020;  alias, 1 drivers
v0000022fbfa9ab30_0 .net "S_ARESET", 0 0, L_0000022fbf9983b0;  alias, 1 drivers
v0000022fbfa9a590_0 .net "S_ARID", 3 0, L_0000022fbfabb240;  alias, 1 drivers
v0000022fbfa9abd0_0 .net "S_ARLEN", 7 0, L_0000022fbfabad40;  alias, 1 drivers
v0000022fbfa9a8b0_0 .net "S_ARREADY", 0 0, v0000022fbfa10c10_0;  alias, 1 drivers
v0000022fbfa9adb0_0 .net "S_ARSIZE", 2 0, L_0000022fbfabb1a0;  alias, 1 drivers
v0000022fbfa995f0_0 .net "S_ARVALID", 0 0, L_0000022fbfabab60;  alias, 1 drivers
v0000022fbfa9a810_0 .net "S_AWADDR", 4 0, L_0000022fbfabfd70;  alias, 1 drivers
v0000022fbfa99c30_0 .net "S_AWBURST", 1 0, L_0000022fbfabe330;  alias, 1 drivers
v0000022fbfa9b170_0 .net "S_AWID", 3 0, L_0000022fbfabded0;  alias, 1 drivers
v0000022fbfa999b0_0 .net "S_AWLEN", 7 0, L_0000022fbfabefb0;  alias, 1 drivers
v0000022fbfa9aa90_0 .net "S_AWREADY", 0 0, v0000022fbfa11a70_0;  alias, 1 drivers
v0000022fbfa9a270_0 .net "S_AWSIZE", 2 0, L_0000022fbfabe470;  alias, 1 drivers
v0000022fbfa9b0d0_0 .net "S_AWVALID", 0 0, L_0000022fbfabec90;  alias, 1 drivers
v0000022fbfa9ae50_0 .net "S_BID", 3 0, v0000022fbfa10490_0;  alias, 1 drivers
v0000022fbfa99910_0 .net "S_BREADY", 0 0, L_0000022fbfac0e50;  alias, 1 drivers
v0000022fbfa99d70_0 .net "S_BRESP", 1 0, v0000022fbfa11250_0;  alias, 1 drivers
v0000022fbfa99ff0_0 .net "S_BVALID", 0 0, v0000022fbfa11bb0_0;  alias, 1 drivers
v0000022fbfa99a50_0 .net "S_RDATA", 7 0, v0000022fbfa10170_0;  alias, 1 drivers
v0000022fbfa9aef0_0 .net "S_RID", 3 0, v0000022fbfa10530_0;  alias, 1 drivers
v0000022fbfa997d0_0 .net "S_RLAST", 0 0, v0000022fbfa10210_0;  alias, 1 drivers
v0000022fbfa994b0_0 .net "S_RREADY", 0 0, L_0000022fbfac0270;  alias, 1 drivers
v0000022fbfa99cd0_0 .net "S_RRESP", 1 0, v0000022fbfa112f0_0;  alias, 1 drivers
v0000022fbfa99b90_0 .net "S_RVALID", 0 0, v0000022fbfa10cb0_0;  alias, 1 drivers
v0000022fbfa99410_0 .net "S_WDATA", 7 0, L_0000022fbfabf910;  alias, 1 drivers
v0000022fbfa9a6d0_0 .net "S_WID", 3 0, L_0000022fbfabf190;  alias, 1 drivers
v0000022fbfa9ac70_0 .net "S_WLAST", 0 0, L_0000022fbfabf730;  alias, 1 drivers
v0000022fbfa9a310_0 .net "S_WREADY", 0 0, v0000022fbfa114d0_0;  alias, 1 drivers
v0000022fbfa9a950_0 .net "S_WVALID", 0 0, L_0000022fbfac0090;  alias, 1 drivers
v0000022fbfa99e10_0 .net *"_ivl_102", 0 0, L_0000022fbfab9ee0;  1 drivers
o0000022fbfa48b58 .functor BUFZ 1, C4<z>; HiZ drive
; Elide local net with no drivers, v0000022fbfa99370_0 name=_ivl_104
v0000022fbfa99eb0_0 .net *"_ivl_108", 0 0, L_0000022fbfaba3e0;  1 drivers
o0000022fbfa48bb8 .functor BUFZ 1, C4<z>; HiZ drive
; Elide local net with no drivers, v0000022fbfa9ad10_0 name=_ivl_110
v0000022fbfa99870_0 .net *"_ivl_114", 0 0, L_0000022fbfaba200;  1 drivers
o0000022fbfa48c18 .functor BUFZ 2, C4<zz>; HiZ drive
; Elide local net with no drivers, v0000022fbfa9a630_0 name=_ivl_116
v0000022fbfa9af90_0 .net *"_ivl_120", 0 0, L_0000022fbfaba700;  1 drivers
o0000022fbfa48c78 .functor BUFZ 4, C4<zzzz>; HiZ drive
; Elide local net with no drivers, v0000022fbfa9b030_0 name=_ivl_122
v0000022fbfa9a450_0 .net *"_ivl_126", 0 0, L_0000022fbfabe8d0;  1 drivers
o0000022fbfa48cd8 .functor BUFZ 8, C4<zzzzzzzz>; HiZ drive
; Elide local net with no drivers, v0000022fbfa992d0_0 name=_ivl_128
v0000022fbfa9a3b0_0 .net *"_ivl_132", 0 0, L_0000022fbfabdb10;  1 drivers
o0000022fbfa48d38 .functor BUFZ 1, C4<z>; HiZ drive
; Elide local net with no drivers, v0000022fbfa9a9f0_0 name=_ivl_134
v0000022fbfa9a4f0_0 .net *"_ivl_138", 0 0, L_0000022fbfabeab0;  1 drivers
o0000022fbfa48d98 .functor BUFZ 1, C4<z>; HiZ drive
; Elide local net with no drivers, v0000022fbfa99730_0 name=_ivl_140
v0000022fbfa9a770_0 .net *"_ivl_144", 0 0, L_0000022fbfabe1f0;  1 drivers
o0000022fbfa48df8 .functor BUFZ 2, C4<zz>; HiZ drive
; Elide local net with no drivers, v0000022fbfa99f50_0 name=_ivl_146
v0000022fbfa99550_0 .net *"_ivl_150", 0 0, L_0000022fbfabfa50;  1 drivers
v0000022fbfa9a090_0 .net *"_ivl_152", 0 0, L_0000022fbfabe650;  1 drivers
o0000022fbfa48e88 .functor BUFZ 1, C4<z>; HiZ drive
; Elide local net with no drivers, v0000022fbfa99af0_0 name=_ivl_154
v0000022fbfa99690_0 .net *"_ivl_156", 0 0, L_0000022fbfabe6f0;  1 drivers
v0000022fbfa9a130_0 .net *"_ivl_160", 0 0, L_0000022fbfabfcd0;  1 drivers
v0000022fbfa9ba60_0 .net *"_ivl_162", 0 0, L_0000022fbfabeb50;  1 drivers
o0000022fbfa48f48 .functor BUFZ 4, C4<zzzz>; HiZ drive
; Elide local net with no drivers, v0000022fbfa9cdc0_0 name=_ivl_164
v0000022fbfa9bce0_0 .net *"_ivl_166", 3 0, L_0000022fbfabe790;  1 drivers
v0000022fbfa9ce60_0 .net *"_ivl_170", 0 0, L_0000022fbfabe3d0;  1 drivers
v0000022fbfa9b600_0 .net *"_ivl_172", 0 0, L_0000022fbfabe830;  1 drivers
o0000022fbfa49008 .functor BUFZ 5, C4<zzzzz>; HiZ drive
; Elide local net with no drivers, v0000022fbfa9c960_0 name=_ivl_174
v0000022fbfa9b7e0_0 .net *"_ivl_176", 4 0, L_0000022fbfabea10;  1 drivers
v0000022fbfa9b2e0_0 .net *"_ivl_18", 0 0, L_0000022fbfab9580;  1 drivers
v0000022fbfa9c140_0 .net *"_ivl_180", 0 0, L_0000022fbfabdbb0;  1 drivers
v0000022fbfa9cd20_0 .net *"_ivl_182", 0 0, L_0000022fbfabebf0;  1 drivers
o0000022fbfa490f8 .functor BUFZ 2, C4<zz>; HiZ drive
; Elide local net with no drivers, v0000022fbfa9cf00_0 name=_ivl_184
v0000022fbfa9ca00_0 .net *"_ivl_186", 1 0, L_0000022fbfabfb90;  1 drivers
v0000022fbfa9bb00_0 .net *"_ivl_190", 0 0, L_0000022fbfabf230;  1 drivers
v0000022fbfa9bd80_0 .net *"_ivl_192", 0 0, L_0000022fbfabfff0;  1 drivers
o0000022fbfa491b8 .functor BUFZ 1, C4<z>; HiZ drive
; Elide local net with no drivers, v0000022fbfa9b420_0 name=_ivl_194
v0000022fbfa9c5a0_0 .net *"_ivl_196", 0 0, L_0000022fbfabdd90;  1 drivers
v0000022fbfa9b880_0 .net *"_ivl_20", 0 0, L_0000022fbfab9d00;  1 drivers
v0000022fbfa9c640_0 .net *"_ivl_200", 0 0, L_0000022fbfabdcf0;  1 drivers
v0000022fbfa9c6e0_0 .net *"_ivl_202", 0 0, L_0000022fbfabf5f0;  1 drivers
o0000022fbfa492a8 .functor BUFZ 8, C4<zzzzzzzz>; HiZ drive
; Elide local net with no drivers, v0000022fbfa9c780_0 name=_ivl_204
v0000022fbfa9b920_0 .net *"_ivl_206", 7 0, L_0000022fbfabe5b0;  1 drivers
v0000022fbfa9c820_0 .net *"_ivl_210", 0 0, L_0000022fbfabed30;  1 drivers
v0000022fbfa9c0a0_0 .net *"_ivl_212", 0 0, L_0000022fbfabedd0;  1 drivers
o0000022fbfa49368 .functor BUFZ 3, C4<zzz>; HiZ drive
; Elide local net with no drivers, v0000022fbfa9c8c0_0 name=_ivl_214
v0000022fbfa9c280_0 .net *"_ivl_216", 2 0, L_0000022fbfabee70;  1 drivers
o0000022fbfa493c8 .functor BUFZ 4, C4<zzzz>; HiZ drive
; Elide local net with no drivers, v0000022fbfa9c320_0 name=_ivl_22
v0000022fbfa9b9c0_0 .net *"_ivl_220", 0 0, L_0000022fbfabf550;  1 drivers
o0000022fbfa49428 .functor BUFZ 1, C4<z>; HiZ drive
; Elide local net with no drivers, v0000022fbfa9bba0_0 name=_ivl_222
v0000022fbfa9b380_0 .net *"_ivl_226", 0 0, L_0000022fbfabef10;  1 drivers
o0000022fbfa49488 .functor BUFZ 1, C4<z>; HiZ drive
; Elide local net with no drivers, v0000022fbfa9c3c0_0 name=_ivl_228
v0000022fbfa9b6a0_0 .net *"_ivl_232", 0 0, L_0000022fbfabf050;  1 drivers
v0000022fbfa9bf60_0 .net *"_ivl_234", 0 0, L_0000022fbfabf0f0;  1 drivers
o0000022fbfa49518 .functor BUFZ 4, C4<zzzz>; HiZ drive
; Elide local net with no drivers, v0000022fbfa9bc40_0 name=_ivl_236
v0000022fbfa9caa0_0 .net *"_ivl_238", 3 0, L_0000022fbfabde30;  1 drivers
v0000022fbfa9cb40_0 .net *"_ivl_24", 3 0, L_0000022fbfab7c80;  1 drivers
v0000022fbfa9b4c0_0 .net *"_ivl_242", 0 0, L_0000022fbfabf2d0;  1 drivers
v0000022fbfa9be20_0 .net *"_ivl_244", 0 0, L_0000022fbfabfaf0;  1 drivers
o0000022fbfa49608 .functor BUFZ 8, C4<zzzzzzzz>; HiZ drive
; Elide local net with no drivers, v0000022fbfa9c460_0 name=_ivl_246
v0000022fbfa9c1e0_0 .net *"_ivl_248", 7 0, L_0000022fbfabf370;  1 drivers
v0000022fbfa9cfa0_0 .net *"_ivl_252", 0 0, L_0000022fbfabdf70;  1 drivers
v0000022fbfa9c500_0 .net *"_ivl_254", 0 0, L_0000022fbfabf7d0;  1 drivers
o0000022fbfa496c8 .functor BUFZ 1, C4<z>; HiZ drive
; Elide local net with no drivers, v0000022fbfa9d180_0 name=_ivl_256
v0000022fbfa9b560_0 .net *"_ivl_258", 0 0, L_0000022fbfabfc30;  1 drivers
v0000022fbfa9d0e0_0 .net *"_ivl_262", 0 0, L_0000022fbfabe010;  1 drivers
v0000022fbfa9cc80_0 .net *"_ivl_264", 0 0, L_0000022fbfabf870;  1 drivers
o0000022fbfa49788 .functor BUFZ 1, C4<z>; HiZ drive
; Elide local net with no drivers, v0000022fbfa9d040_0 name=_ivl_266
v0000022fbfa9cbe0_0 .net *"_ivl_268", 0 0, L_0000022fbfabf4b0;  1 drivers
v0000022fbfa9bec0_0 .net *"_ivl_272", 0 0, L_0000022fbfabf9b0;  1 drivers
o0000022fbfa49818 .functor BUFZ 1, C4<z>; HiZ drive
; Elide local net with no drivers, v0000022fbfa9c000_0 name=_ivl_274
v0000022fbfa9b740_0 .net *"_ivl_278", 0 0, L_0000022fbfabfeb0;  1 drivers
v0000022fbfa9f680_0 .net *"_ivl_28", 0 0, L_0000022fbfabaac0;  1 drivers
o0000022fbfa498a8 .functor BUFZ 1, C4<z>; HiZ drive
; Elide local net with no drivers, v0000022fbfa9edc0_0 name=_ivl_280
v0000022fbfa9db00_0 .net *"_ivl_284", 0 0, L_0000022fbfac0130;  1 drivers
o0000022fbfa49908 .functor BUFZ 4, C4<zzzz>; HiZ drive
; Elide local net with no drivers, v0000022fbfa9e3c0_0 name=_ivl_286
v0000022fbfa9f040_0 .net *"_ivl_290", 0 0, L_0000022fbfac01d0;  1 drivers
o0000022fbfa49968 .functor BUFZ 2, C4<zz>; HiZ drive
; Elide local net with no drivers, v0000022fbfa9e820_0 name=_ivl_292
v0000022fbfa9f400_0 .net *"_ivl_296", 0 0, L_0000022fbfac0450;  1 drivers
o0000022fbfa499c8 .functor BUFZ 1, C4<z>; HiZ drive
; Elide local net with no drivers, v0000022fbfa9eaa0_0 name=_ivl_298
v0000022fbfa9f4a0_0 .net *"_ivl_30", 0 0, L_0000022fbfaba8e0;  1 drivers
v0000022fbfa9dba0_0 .net *"_ivl_302", 0 0, L_0000022fbfac0c70;  1 drivers
o0000022fbfa49a58 .functor BUFZ 4, C4<zzzz>; HiZ drive
; Elide local net with no drivers, v0000022fbfa9ebe0_0 name=_ivl_304
v0000022fbfa9f180_0 .net *"_ivl_308", 0 0, L_0000022fbfac15d0;  1 drivers
o0000022fbfa49ab8 .functor BUFZ 2, C4<zz>; HiZ drive
; Elide local net with no drivers, v0000022fbfa9f360_0 name=_ivl_310
v0000022fbfa9f0e0_0 .net *"_ivl_314", 0 0, L_0000022fbfac0db0;  1 drivers
o0000022fbfa49b18 .functor BUFZ 1, C4<z>; HiZ drive
; Elide local net with no drivers, v0000022fbfa9f540_0 name=_ivl_316
o0000022fbfa49b48 .functor BUFZ 5, C4<zzzzz>; HiZ drive
; Elide local net with no drivers, v0000022fbfa9de20_0 name=_ivl_32
v0000022fbfa9e140_0 .net *"_ivl_320", 0 0, L_0000022fbfac04f0;  1 drivers
v0000022fbfa9f5e0_0 .net *"_ivl_322", 0 0, L_0000022fbfac0590;  1 drivers
o0000022fbfa49bd8 .functor BUFZ 1, C4<z>; HiZ drive
; Elide local net with no drivers, v0000022fbfa9f220_0 name=_ivl_324
v0000022fbfa9f720_0 .net *"_ivl_326", 0 0, L_0000022fbfac1170;  1 drivers
v0000022fbfa9df60_0 .net *"_ivl_34", 4 0, L_0000022fbfaba5c0;  1 drivers
v0000022fbfa9f2c0_0 .net *"_ivl_38", 0 0, L_0000022fbfaba840;  1 drivers
v0000022fbfa9ec80_0 .net *"_ivl_40", 0 0, L_0000022fbfabb2e0;  1 drivers
o0000022fbfa49cc8 .functor BUFZ 2, C4<zz>; HiZ drive
; Elide local net with no drivers, v0000022fbfa9e0a0_0 name=_ivl_42
v0000022fbfa9f7c0_0 .net *"_ivl_44", 1 0, L_0000022fbfabb100;  1 drivers
v0000022fbfa9f860_0 .net *"_ivl_48", 0 0, L_0000022fbfabb420;  1 drivers
v0000022fbfa9f900_0 .net *"_ivl_50", 0 0, L_0000022fbfaba660;  1 drivers
o0000022fbfa49d88 .functor BUFZ 1, C4<z>; HiZ drive
; Elide local net with no drivers, v0000022fbfa9ed20_0 name=_ivl_52
v0000022fbfa9f9a0_0 .net *"_ivl_54", 0 0, L_0000022fbfabaa20;  1 drivers
v0000022fbfa9e1e0_0 .net *"_ivl_58", 0 0, L_0000022fbfaba2a0;  1 drivers
v0000022fbfa9eb40_0 .net *"_ivl_60", 0 0, L_0000022fbfabb4c0;  1 drivers
o0000022fbfa49e48 .functor BUFZ 8, C4<zzzzzzzz>; HiZ drive
; Elide local net with no drivers, v0000022fbfa9e280_0 name=_ivl_62
v0000022fbfa9e6e0_0 .net *"_ivl_64", 7 0, L_0000022fbfabaca0;  1 drivers
v0000022fbfa9e960_0 .net *"_ivl_68", 0 0, L_0000022fbfabac00;  1 drivers
v0000022fbfa9e8c0_0 .net *"_ivl_70", 0 0, L_0000022fbfabb060;  1 drivers
o0000022fbfa49f08 .functor BUFZ 3, C4<zzz>; HiZ drive
; Elide local net with no drivers, v0000022fbfa9e320_0 name=_ivl_72
v0000022fbfa9ea00_0 .net *"_ivl_74", 2 0, L_0000022fbfabade0;  1 drivers
v0000022fbfa9dc40_0 .net *"_ivl_78", 0 0, L_0000022fbfabb380;  1 drivers
o0000022fbfa49f98 .functor BUFZ 1, C4<z>; HiZ drive
; Elide local net with no drivers, v0000022fbfa9dec0_0 name=_ivl_80
v0000022fbfa9e780_0 .net *"_ivl_84", 0 0, L_0000022fbfabb560;  1 drivers
o0000022fbfa49ff8 .functor BUFZ 1, C4<z>; HiZ drive
; Elide local net with no drivers, v0000022fbfa9e640_0 name=_ivl_86
v0000022fbfa9e5a0_0 .net *"_ivl_90", 0 0, L_0000022fbfabaf20;  1 drivers
o0000022fbfa4a058 .functor BUFZ 4, C4<zzzz>; HiZ drive
; Elide local net with no drivers, v0000022fbfa9e000_0 name=_ivl_92
v0000022fbfa9e500_0 .net *"_ivl_96", 0 0, L_0000022fbfabafc0;  1 drivers
o0000022fbfa4a0b8 .functor BUFZ 8, C4<zzzzzzzz>; HiZ drive
; Elide local net with no drivers, v0000022fbfa9dce0_0 name=_ivl_98
v0000022fbfa9ee60_0 .net "clk", 0 0, v0000022fbfab80e0_0;  1 drivers
v0000022fbfa9dd80_0 .var "currentMaster", 2 0;
v0000022fbfa9e460_0 .var "masterIndex", 2 0;
v0000022fbfa9efa0 .array "releaseMastersAccess", 2 0, 0 0;
v0000022fbfa9ef00_0 .net "rst", 0 0, v0000022fbfab9080_0;  1 drivers
v0000022fbfaa8480 .array "setMastersAccess", 2 0, 0 0;
E_0000022fbfa38410 .event posedge, v0000022fbfa9ee60_0;
L_0000022fbfab9580 .cmp/eq 3, v0000022fbfa9dd80_0, v0000022fbfa98cb0_0;
L_0000022fbfab9d00 .cmp/eq 3, v0000022fbfa9dd80_0, v0000022fbfa97450_0;
L_0000022fbfab7c80 .functor MUXZ 4, o0000022fbfa493c8, v0000022fbfaa8660_0, L_0000022fbfab9d00, C4<>;
L_0000022fbfabb240 .functor MUXZ 4, L_0000022fbfab7c80, v0000022fbfab52f0_0, L_0000022fbfab9580, C4<>;
L_0000022fbfabaac0 .cmp/eq 3, v0000022fbfa9dd80_0, v0000022fbfa98cb0_0;
L_0000022fbfaba8e0 .cmp/eq 3, v0000022fbfa9dd80_0, v0000022fbfa97450_0;
L_0000022fbfaba5c0 .functor MUXZ 5, o0000022fbfa49b48, v0000022fbfaa9560_0, L_0000022fbfaba8e0, C4<>;
L_0000022fbfaba980 .functor MUXZ 5, L_0000022fbfaba5c0, v0000022fbfab4fd0_0, L_0000022fbfabaac0, C4<>;
L_0000022fbfaba840 .cmp/eq 3, v0000022fbfa9dd80_0, v0000022fbfa98cb0_0;
L_0000022fbfabb2e0 .cmp/eq 3, v0000022fbfa9dd80_0, v0000022fbfa97450_0;
L_0000022fbfabb100 .functor MUXZ 2, o0000022fbfa49cc8, v0000022fbfaa87a0_0, L_0000022fbfabb2e0, C4<>;
L_0000022fbfaba020 .functor MUXZ 2, L_0000022fbfabb100, v0000022fbfab3bd0_0, L_0000022fbfaba840, C4<>;
L_0000022fbfabb420 .cmp/eq 3, v0000022fbfa9dd80_0, v0000022fbfa98cb0_0;
L_0000022fbfaba660 .cmp/eq 3, v0000022fbfa9dd80_0, v0000022fbfa97450_0;
L_0000022fbfabaa20 .functor MUXZ 1, o0000022fbfa49d88, v0000022fbfaa8980_0, L_0000022fbfaba660, C4<>;
L_0000022fbfabab60 .functor MUXZ 1, L_0000022fbfabaa20, v0000022fbfab4cb0_0, L_0000022fbfabb420, C4<>;
L_0000022fbfaba2a0 .cmp/eq 3, v0000022fbfa9dd80_0, v0000022fbfa98cb0_0;
L_0000022fbfabb4c0 .cmp/eq 3, v0000022fbfa9dd80_0, v0000022fbfa97450_0;
L_0000022fbfabaca0 .functor MUXZ 8, o0000022fbfa49e48, v0000022fbfaa8700_0, L_0000022fbfabb4c0, C4<>;
L_0000022fbfabad40 .functor MUXZ 8, L_0000022fbfabaca0, v0000022fbfab4530_0, L_0000022fbfaba2a0, C4<>;
L_0000022fbfabac00 .cmp/eq 3, v0000022fbfa9dd80_0, v0000022fbfa98cb0_0;
L_0000022fbfabb060 .cmp/eq 3, v0000022fbfa9dd80_0, v0000022fbfa97450_0;
L_0000022fbfabade0 .functor MUXZ 3, o0000022fbfa49f08, v0000022fbfaa8840_0, L_0000022fbfabb060, C4<>;
L_0000022fbfabb1a0 .functor MUXZ 3, L_0000022fbfabade0, v0000022fbfab3e50_0, L_0000022fbfabac00, C4<>;
L_0000022fbfabb380 .cmp/eq 3, v0000022fbfa9dd80_0, v0000022fbfa98cb0_0;
L_0000022fbfaba160 .functor MUXZ 1, o0000022fbfa49f98, v0000022fbfa10c10_0, L_0000022fbfabb380, C4<>;
L_0000022fbfabb560 .cmp/eq 3, v0000022fbfa9dd80_0, v0000022fbfa97450_0;
L_0000022fbfabae80 .functor MUXZ 1, o0000022fbfa49ff8, v0000022fbfa10c10_0, L_0000022fbfabb560, C4<>;
L_0000022fbfabaf20 .cmp/eq 3, v0000022fbfa9dd80_0, v0000022fbfa98cb0_0;
L_0000022fbfaba520 .functor MUXZ 4, o0000022fbfa4a058, v0000022fbfa10530_0, L_0000022fbfabaf20, C4<>;
L_0000022fbfabafc0 .cmp/eq 3, v0000022fbfa9dd80_0, v0000022fbfa98cb0_0;
L_0000022fbfaba340 .functor MUXZ 8, o0000022fbfa4a0b8, v0000022fbfa10170_0, L_0000022fbfabafc0, C4<>;
L_0000022fbfab9ee0 .cmp/eq 3, v0000022fbfa9dd80_0, v0000022fbfa98cb0_0;
L_0000022fbfab9f80 .functor MUXZ 1, o0000022fbfa48b58, v0000022fbfa10210_0, L_0000022fbfab9ee0, C4<>;
L_0000022fbfaba3e0 .cmp/eq 3, v0000022fbfa9dd80_0, v0000022fbfa98cb0_0;
L_0000022fbfaba0c0 .functor MUXZ 1, o0000022fbfa48bb8, v0000022fbfa10cb0_0, L_0000022fbfaba3e0, C4<>;
L_0000022fbfaba200 .cmp/eq 3, v0000022fbfa9dd80_0, v0000022fbfa98cb0_0;
L_0000022fbfaba480 .functor MUXZ 2, o0000022fbfa48c18, v0000022fbfa112f0_0, L_0000022fbfaba200, C4<>;
L_0000022fbfaba700 .cmp/eq 3, v0000022fbfa9dd80_0, v0000022fbfa97450_0;
L_0000022fbfaba7a0 .functor MUXZ 4, o0000022fbfa48c78, v0000022fbfa10530_0, L_0000022fbfaba700, C4<>;
L_0000022fbfabe8d0 .cmp/eq 3, v0000022fbfa9dd80_0, v0000022fbfa97450_0;
L_0000022fbfabe290 .functor MUXZ 8, o0000022fbfa48cd8, v0000022fbfa10170_0, L_0000022fbfabe8d0, C4<>;
L_0000022fbfabdb10 .cmp/eq 3, v0000022fbfa9dd80_0, v0000022fbfa97450_0;
L_0000022fbfabe970 .functor MUXZ 1, o0000022fbfa48d38, v0000022fbfa10210_0, L_0000022fbfabdb10, C4<>;
L_0000022fbfabeab0 .cmp/eq 3, v0000022fbfa9dd80_0, v0000022fbfa97450_0;
L_0000022fbfabe150 .functor MUXZ 1, o0000022fbfa48d98, v0000022fbfa10cb0_0, L_0000022fbfabeab0, C4<>;
L_0000022fbfabe1f0 .cmp/eq 3, v0000022fbfa9dd80_0, v0000022fbfa97450_0;
L_0000022fbfabf410 .functor MUXZ 2, o0000022fbfa48df8, v0000022fbfa112f0_0, L_0000022fbfabe1f0, C4<>;
L_0000022fbfabfa50 .cmp/eq 3, v0000022fbfa9dd80_0, v0000022fbfa98cb0_0;
L_0000022fbfabe650 .cmp/eq 3, v0000022fbfa9dd80_0, v0000022fbfa97450_0;
L_0000022fbfabe6f0 .functor MUXZ 1, o0000022fbfa48e88, v0000022fbfaa96a0_0, L_0000022fbfabe650, C4<>;
L_0000022fbfac0270 .functor MUXZ 1, L_0000022fbfabe6f0, v0000022fbfab3b30_0, L_0000022fbfabfa50, C4<>;
L_0000022fbfabfcd0 .cmp/eq 3, v0000022fbfa9dd80_0, v0000022fbfa98cb0_0;
L_0000022fbfabeb50 .cmp/eq 3, v0000022fbfa9dd80_0, v0000022fbfa97450_0;
L_0000022fbfabe790 .functor MUXZ 4, o0000022fbfa48f48, v0000022fbfaa8fc0_0, L_0000022fbfabeb50, C4<>;
L_0000022fbfabded0 .functor MUXZ 4, L_0000022fbfabe790, v0000022fbfab3a90_0, L_0000022fbfabfcd0, C4<>;
L_0000022fbfabe3d0 .cmp/eq 3, v0000022fbfa9dd80_0, v0000022fbfa98cb0_0;
L_0000022fbfabe830 .cmp/eq 3, v0000022fbfa9dd80_0, v0000022fbfa97450_0;
L_0000022fbfabea10 .functor MUXZ 5, o0000022fbfa49008, v0000022fbfaa92e0_0, L_0000022fbfabe830, C4<>;
L_0000022fbfabfd70 .functor MUXZ 5, L_0000022fbfabea10, v0000022fbfab39f0_0, L_0000022fbfabe3d0, C4<>;
L_0000022fbfabdbb0 .cmp/eq 3, v0000022fbfa9dd80_0, v0000022fbfa98cb0_0;
L_0000022fbfabebf0 .cmp/eq 3, v0000022fbfa9dd80_0, v0000022fbfa97450_0;
L_0000022fbfabfb90 .functor MUXZ 2, o0000022fbfa490f8, v0000022fbfaa8a20_0, L_0000022fbfabebf0, C4<>;
L_0000022fbfabe330 .functor MUXZ 2, L_0000022fbfabfb90, v0000022fbfab38b0_0, L_0000022fbfabdbb0, C4<>;
L_0000022fbfabf230 .cmp/eq 3, v0000022fbfa9dd80_0, v0000022fbfa98cb0_0;
L_0000022fbfabfff0 .cmp/eq 3, v0000022fbfa9dd80_0, v0000022fbfa97450_0;
L_0000022fbfabdd90 .functor MUXZ 1, o0000022fbfa491b8, v0000022fbfaa97e0_0, L_0000022fbfabfff0, C4<>;
L_0000022fbfabec90 .functor MUXZ 1, L_0000022fbfabdd90, v0000022fbfab42b0_0, L_0000022fbfabf230, C4<>;
L_0000022fbfabdcf0 .cmp/eq 3, v0000022fbfa9dd80_0, v0000022fbfa98cb0_0;
L_0000022fbfabf5f0 .cmp/eq 3, v0000022fbfa9dd80_0, v0000022fbfa97450_0;
L_0000022fbfabe5b0 .functor MUXZ 8, o0000022fbfa492a8, v0000022fbfaa8ac0_0, L_0000022fbfabf5f0, C4<>;
L_0000022fbfabefb0 .functor MUXZ 8, L_0000022fbfabe5b0, v0000022fbfab4350_0, L_0000022fbfabdcf0, C4<>;
L_0000022fbfabed30 .cmp/eq 3, v0000022fbfa9dd80_0, v0000022fbfa98cb0_0;
L_0000022fbfabedd0 .cmp/eq 3, v0000022fbfa9dd80_0, v0000022fbfa97450_0;
L_0000022fbfabee70 .functor MUXZ 3, o0000022fbfa49368, v0000022fbfaa8b60_0, L_0000022fbfabedd0, C4<>;
L_0000022fbfabe470 .functor MUXZ 3, L_0000022fbfabee70, v0000022fbfab4f30_0, L_0000022fbfabed30, C4<>;
L_0000022fbfabf550 .cmp/eq 3, v0000022fbfa9dd80_0, v0000022fbfa98cb0_0;
L_0000022fbfabe510 .functor MUXZ 1, o0000022fbfa49428, v0000022fbfa11a70_0, L_0000022fbfabf550, C4<>;
L_0000022fbfabef10 .cmp/eq 3, v0000022fbfa9dd80_0, v0000022fbfa97450_0;
L_0000022fbfabf690 .functor MUXZ 1, o0000022fbfa49488, v0000022fbfa11a70_0, L_0000022fbfabef10, C4<>;
L_0000022fbfabf050 .cmp/eq 3, v0000022fbfa9dd80_0, v0000022fbfa98cb0_0;
L_0000022fbfabf0f0 .cmp/eq 3, v0000022fbfa9dd80_0, v0000022fbfa97450_0;
L_0000022fbfabde30 .functor MUXZ 4, o0000022fbfa49518, v0000022fbfaa8ca0_0, L_0000022fbfabf0f0, C4<>;
L_0000022fbfabf190 .functor MUXZ 4, L_0000022fbfabde30, v0000022fbfab3d10_0, L_0000022fbfabf050, C4<>;
L_0000022fbfabf2d0 .cmp/eq 3, v0000022fbfa9dd80_0, v0000022fbfa98cb0_0;
L_0000022fbfabfaf0 .cmp/eq 3, v0000022fbfa9dd80_0, v0000022fbfa97450_0;
L_0000022fbfabf370 .functor MUXZ 8, o0000022fbfa49608, v0000022fbfaa9740_0, L_0000022fbfabfaf0, C4<>;
L_0000022fbfabf910 .functor MUXZ 8, L_0000022fbfabf370, v0000022fbfab4df0_0, L_0000022fbfabf2d0, C4<>;
L_0000022fbfabdf70 .cmp/eq 3, v0000022fbfa9dd80_0, v0000022fbfa98cb0_0;
L_0000022fbfabf7d0 .cmp/eq 3, v0000022fbfa9dd80_0, v0000022fbfa97450_0;
L_0000022fbfabfc30 .functor MUXZ 1, o0000022fbfa496c8, v0000022fbfaa8340_0, L_0000022fbfabf7d0, C4<>;
L_0000022fbfac0090 .functor MUXZ 1, L_0000022fbfabfc30, v0000022fbfab5430_0, L_0000022fbfabdf70, C4<>;
L_0000022fbfabe010 .cmp/eq 3, v0000022fbfa9dd80_0, v0000022fbfa98cb0_0;
L_0000022fbfabf870 .cmp/eq 3, v0000022fbfa9dd80_0, v0000022fbfa97450_0;
L_0000022fbfabf4b0 .functor MUXZ 1, o0000022fbfa49788, v0000022fbfaa9920_0, L_0000022fbfabf870, C4<>;
L_0000022fbfabf730 .functor MUXZ 1, L_0000022fbfabf4b0, v0000022fbfab3130_0, L_0000022fbfabe010, C4<>;
L_0000022fbfabf9b0 .cmp/eq 3, v0000022fbfa9dd80_0, v0000022fbfa98cb0_0;
L_0000022fbfabfe10 .functor MUXZ 1, o0000022fbfa49818, v0000022fbfa114d0_0, L_0000022fbfabf9b0, C4<>;
L_0000022fbfabfeb0 .cmp/eq 3, v0000022fbfa9dd80_0, v0000022fbfa97450_0;
L_0000022fbfabff50 .functor MUXZ 1, o0000022fbfa498a8, v0000022fbfa114d0_0, L_0000022fbfabfeb0, C4<>;
L_0000022fbfac0130 .cmp/eq 3, v0000022fbfa9dd80_0, v0000022fbfa98cb0_0;
L_0000022fbfabe0b0 .functor MUXZ 4, o0000022fbfa49908, v0000022fbfa10490_0, L_0000022fbfac0130, C4<>;
L_0000022fbfac01d0 .cmp/eq 3, v0000022fbfa9dd80_0, v0000022fbfa98cb0_0;
L_0000022fbfabdc50 .functor MUXZ 2, o0000022fbfa49968, v0000022fbfa11250_0, L_0000022fbfac01d0, C4<>;
L_0000022fbfac0450 .cmp/eq 3, v0000022fbfa9dd80_0, v0000022fbfa98cb0_0;
L_0000022fbfac0d10 .functor MUXZ 1, o0000022fbfa499c8, v0000022fbfa11bb0_0, L_0000022fbfac0450, C4<>;
L_0000022fbfac0c70 .cmp/eq 3, v0000022fbfa9dd80_0, v0000022fbfa97450_0;
L_0000022fbfac1030 .functor MUXZ 4, o0000022fbfa49a58, v0000022fbfa10490_0, L_0000022fbfac0c70, C4<>;
L_0000022fbfac15d0 .cmp/eq 3, v0000022fbfa9dd80_0, v0000022fbfa97450_0;
L_0000022fbfac0bd0 .functor MUXZ 2, o0000022fbfa49ab8, v0000022fbfa11250_0, L_0000022fbfac15d0, C4<>;
L_0000022fbfac0db0 .cmp/eq 3, v0000022fbfa9dd80_0, v0000022fbfa97450_0;
L_0000022fbfac0310 .functor MUXZ 1, o0000022fbfa49b18, v0000022fbfa11bb0_0, L_0000022fbfac0db0, C4<>;
L_0000022fbfac04f0 .cmp/eq 3, v0000022fbfa9dd80_0, v0000022fbfa98cb0_0;
L_0000022fbfac0590 .cmp/eq 3, v0000022fbfa9dd80_0, v0000022fbfa97450_0;
L_0000022fbfac1170 .functor MUXZ 1, o0000022fbfa49bd8, v0000022fbfaa9880_0, L_0000022fbfac0590, C4<>;
L_0000022fbfac0e50 .functor MUXZ 1, L_0000022fbfac1170, v0000022fbfab33b0_0, L_0000022fbfac04f0, C4<>;
S_0000022fbf8e80a0 .scope module, "u_AXI4_Poly_Add" "AXI4_Poly_Add" 2 257, 5 7 0, S_0000022fbfa29bc0;
 .timescale -9 -9;
    .port_info 0 /INPUT 1 "ACLK";
    .port_info 1 /INPUT 1 "ARESET";
    .port_info 2 /INPUT 1 "SET_ACCESS";
    .port_info 3 /OUTPUT 1 "RELEASE_ACCESS";
    .port_info 4 /OUTPUT 4 "ARID";
    .port_info 5 /OUTPUT 5 "ARADDR";
    .port_info 6 /OUTPUT 2 "ARBURST";
    .port_info 7 /OUTPUT 1 "ARVALID";
    .port_info 8 /INPUT 1 "ARREADY";
    .port_info 9 /OUTPUT 8 "ARLEN";
    .port_info 10 /OUTPUT 3 "ARSIZE";
    .port_info 11 /INPUT 4 "RID";
    .port_info 12 /INPUT 8 "RDATA";
    .port_info 13 /INPUT 1 "RLAST";
    .port_info 14 /INPUT 1 "RVALID";
    .port_info 15 /OUTPUT 1 "RREADY";
    .port_info 16 /INPUT 2 "RRESP";
    .port_info 17 /OUTPUT 4 "AWID";
    .port_info 18 /OUTPUT 5 "AWADDR";
    .port_info 19 /OUTPUT 2 "AWBURST";
    .port_info 20 /OUTPUT 1 "AWVALID";
    .port_info 21 /INPUT 1 "AWREADY";
    .port_info 22 /OUTPUT 8 "AWLEN";
    .port_info 23 /OUTPUT 3 "AWSIZE";
    .port_info 24 /OUTPUT 4 "WID";
    .port_info 25 /OUTPUT 8 "WDATA";
    .port_info 26 /OUTPUT 1 "WLAST";
    .port_info 27 /OUTPUT 1 "WVALID";
    .port_info 28 /INPUT 1 "WREADY";
    .port_info 29 /INPUT 4 "BID";
    .port_info 30 /INPUT 2 "BRESP";
    .port_info 31 /INPUT 1 "BVALID";
    .port_info 32 /OUTPUT 1 "BREADY";
P_0000022fbf8b7ed0 .param/l "addressLength" 0 5 16, +C4<00000000000000000000000000000101>;
P_0000022fbf8b7f08 .param/l "memDepth" 0 5 15, +C4<00000000000000000000000000100000>;
P_0000022fbf8b7f40 .param/l "memWidth" 0 5 14, +C4<00000000000000000000000000001000>;
v0000022fbfaa94c0_0 .net "ACLK", 0 0, L_0000022fbf9990d0;  alias, 1 drivers
v0000022fbfaa9560_0 .var "ARADDR", 4 0;
v0000022fbfaa87a0_0 .var "ARBURST", 1 0;
v0000022fbfaa88e0_0 .net "ARESET", 0 0, L_0000022fbf9978c0;  alias, 1 drivers
v0000022fbfaa8660_0 .var "ARID", 3 0;
v0000022fbfaa8700_0 .var "ARLEN", 7 0;
v0000022fbfaa83e0_0 .net "ARREADY", 0 0, L_0000022fbfabae80;  alias, 1 drivers
v0000022fbfaa8840_0 .var "ARSIZE", 2 0;
v0000022fbfaa8980_0 .var "ARVALID", 0 0;
v0000022fbfaa92e0_0 .var "AWADDR", 4 0;
v0000022fbfaa8a20_0 .var "AWBURST", 1 0;
v0000022fbfaa8fc0_0 .var "AWID", 3 0;
v0000022fbfaa8ac0_0 .var "AWLEN", 7 0;
v0000022fbfaa9420_0 .net "AWREADY", 0 0, L_0000022fbfabf690;  alias, 1 drivers
v0000022fbfaa8b60_0 .var "AWSIZE", 2 0;
v0000022fbfaa97e0_0 .var "AWVALID", 0 0;
v0000022fbfaa9240_0 .net "BID", 3 0, L_0000022fbfac1030;  alias, 1 drivers
v0000022fbfaa9880_0 .var "BREADY", 0 0;
v0000022fbfaa9100_0 .net "BRESP", 1 0, L_0000022fbfac0bd0;  alias, 1 drivers
v0000022fbfaa9060_0 .net "BVALID", 0 0, L_0000022fbfac0310;  alias, 1 drivers
v0000022fbfaa9380_0 .net "RDATA", 7 0, L_0000022fbfabe290;  alias, 1 drivers
v0000022fbfaa91a0_0 .var "RELEASE_ACCESS", 0 0;
v0000022fbfaa9600_0 .net "RID", 3 0, L_0000022fbfaba7a0;  alias, 1 drivers
v0000022fbfaa7e40_0 .net "RLAST", 0 0, L_0000022fbfabe970;  alias, 1 drivers
v0000022fbfaa96a0_0 .var "RREADY", 0 0;
v0000022fbfaa8c00_0 .net "RRESP", 1 0, L_0000022fbfabf410;  alias, 1 drivers
v0000022fbfaa99c0_0 .net "RVALID", 0 0, L_0000022fbfabe150;  alias, 1 drivers
v0000022fbfaa8200_0 .net "SET_ACCESS", 0 0, L_0000022fbf997fc0;  alias, 1 drivers
v0000022fbfaa9740_0 .var "WDATA", 7 0;
v0000022fbfaa8ca0_0 .var "WID", 3 0;
v0000022fbfaa9920_0 .var "WLAST", 0 0;
v0000022fbfaa7b20_0 .net "WREADY", 0 0, L_0000022fbfabff50;  alias, 1 drivers
v0000022fbfaa8340_0 .var "WVALID", 0 0;
v0000022fbfaa8d40_0 .var/i "arrayIndex", 31 0;
v0000022fbfaa8de0 .array "coefficientsPoly", 3 0, 7 0;
v0000022fbfaa8e80_0 .var/i "delayReadCyclesCounter", 31 0;
v0000022fbfaa7bc0_0 .var/i "delayWriteCyclesCounter", 31 0;
v0000022fbfaa7c60_0 .var "doReadAddressStall", 0 0;
v0000022fbfaa7d00_0 .var "doWriteDataStall", 0 0;
v0000022fbfaa7da0_0 .var "firstTimeInitArrayAddress", 0 0;
v0000022fbfaa7ee0_0 .var "performOperations", 0 0;
v0000022fbfaa7f80_0 .var "readAddressARRAY", 4 0;
v0000022fbfaa8020_0 .var "readAddressChannelEnabled", 0 0;
v0000022fbfaa80c0_0 .var "readChannelEnabled", 0 0;
v0000022fbfaa8160_0 .var "readTransactionID", 3 0;
v0000022fbfab4030_0 .var "resetReleaseAccess", 0 0;
v0000022fbfab3db0_0 .var "writeAddressARRAY", 4 0;
v0000022fbfab4210_0 .var "writeAddressChannelEnabled", 0 0;
v0000022fbfab4ad0_0 .var "writeChannelEnabled", 0 0;
v0000022fbfab3950_0 .var "writeResponseChannelEnabled", 0 0;
v0000022fbfab5070_0 .var "writeStatusBRESP", 1 0;
v0000022fbfab47b0_0 .var "writeTransactionID", 3 0;
E_0000022fbfa38350 .event posedge, v0000022fbfa973b0_0;
S_0000022fbfaa9ae0 .scope generate, "register[0]" "register[0]" 5 88, 5 88 0, S_0000022fbf8e80a0;
 .timescale -9 -9;
P_0000022fbfa380d0 .param/l "index" 0 5 88, +C4<00>;
v0000022fbfaa8de0_0 .array/port v0000022fbfaa8de0, 0;
L_0000022fbf998d50 .functor BUFZ 8, v0000022fbfaa8de0_0, C4<00000000>, C4<00000000>, C4<00000000>;
v0000022fbfaa82a0_0 .net "wireOfPoly", 7 0, L_0000022fbf998d50;  1 drivers
S_0000022fbfaa9c70 .scope generate, "register[1]" "register[1]" 5 88, 5 88 0, S_0000022fbf8e80a0;
 .timescale -9 -9;
P_0000022fbfa38550 .param/l "index" 0 5 88, +C4<01>;
v0000022fbfaa8de0_1 .array/port v0000022fbfaa8de0, 1;
L_0000022fbf999140 .functor BUFZ 8, v0000022fbfaa8de0_1, C4<00000000>, C4<00000000>, C4<00000000>;
v0000022fbfaa8520_0 .net "wireOfPoly", 7 0, L_0000022fbf999140;  1 drivers
S_0000022fbfaaa940 .scope generate, "register[2]" "register[2]" 5 88, 5 88 0, S_0000022fbf8e80a0;
 .timescale -9 -9;
P_0000022fbfa38310 .param/l "index" 0 5 88, +C4<010>;
v0000022fbfaa8de0_2 .array/port v0000022fbfaa8de0, 2;
L_0000022fbf998180 .functor BUFZ 8, v0000022fbfaa8de0_2, C4<00000000>, C4<00000000>, C4<00000000>;
v0000022fbfaa8f20_0 .net "wireOfPoly", 7 0, L_0000022fbf998180;  1 drivers
S_0000022fbfaa9fe0 .scope generate, "register[3]" "register[3]" 5 88, 5 88 0, S_0000022fbf8e80a0;
 .timescale -9 -9;
P_0000022fbfa38f10 .param/l "index" 0 5 88, +C4<011>;
v0000022fbfaa8de0_3 .array/port v0000022fbfaa8de0, 3;
L_0000022fbf998dc0 .functor BUFZ 8, v0000022fbfaa8de0_3, C4<00000000>, C4<00000000>, C4<00000000>;
v0000022fbfaa85c0_0 .net "wireOfPoly", 7 0, L_0000022fbf998dc0;  1 drivers
S_0000022fbfaaaad0 .scope module, "u_AXI4_Write_BRAM" "AXI4_Write_BRAM" 2 221, 6 7 0, S_0000022fbfa29bc0;
 .timescale -9 -9;
    .port_info 0 /INPUT 1 "ACLK";
    .port_info 1 /INPUT 1 "ARESET";
    .port_info 2 /INPUT 1 "SET_ACCESS";
    .port_info 3 /OUTPUT 1 "RELEASE_ACCESS";
    .port_info 4 /OUTPUT 4 "ARID";
    .port_info 5 /OUTPUT 5 "ARADDR";
    .port_info 6 /OUTPUT 2 "ARBURST";
    .port_info 7 /OUTPUT 1 "ARVALID";
    .port_info 8 /INPUT 1 "ARREADY";
    .port_info 9 /OUTPUT 8 "ARLEN";
    .port_info 10 /OUTPUT 3 "ARSIZE";
    .port_info 11 /INPUT 4 "RID";
    .port_info 12 /INPUT 8 "RDATA";
    .port_info 13 /INPUT 1 "RLAST";
    .port_info 14 /INPUT 1 "RVALID";
    .port_info 15 /OUTPUT 1 "RREADY";
    .port_info 16 /INPUT 2 "RRESP";
    .port_info 17 /OUTPUT 4 "AWID";
    .port_info 18 /OUTPUT 5 "AWADDR";
    .port_info 19 /OUTPUT 2 "AWBURST";
    .port_info 20 /OUTPUT 1 "AWVALID";
    .port_info 21 /INPUT 1 "AWREADY";
    .port_info 22 /OUTPUT 8 "AWLEN";
    .port_info 23 /OUTPUT 3 "AWSIZE";
    .port_info 24 /OUTPUT 4 "WID";
    .port_info 25 /OUTPUT 8 "WDATA";
    .port_info 26 /OUTPUT 1 "WLAST";
    .port_info 27 /OUTPUT 1 "WVALID";
    .port_info 28 /INPUT 1 "WREADY";
    .port_info 29 /INPUT 4 "BID";
    .port_info 30 /INPUT 2 "BRESP";
    .port_info 31 /INPUT 1 "BVALID";
    .port_info 32 /OUTPUT 1 "BREADY";
P_0000022fbf8fb110 .param/l "addressLength" 0 6 16, +C4<00000000000000000000000000000101>;
P_0000022fbf8fb148 .param/l "memDepth" 0 6 15, +C4<00000000000000000000000000100000>;
P_0000022fbf8fb180 .param/l "memWidth" 0 6 14, +C4<00000000000000000000000000001000>;
v0000022fbfab5390_0 .net "ACLK", 0 0, L_0000022fbf997bd0;  alias, 1 drivers
v0000022fbfab4fd0_0 .var "ARADDR", 4 0;
v0000022fbfab3bd0_0 .var "ARBURST", 1 0;
v0000022fbfab4b70_0 .net "ARESET", 0 0, L_0000022fbf998110;  alias, 1 drivers
v0000022fbfab52f0_0 .var "ARID", 3 0;
v0000022fbfab4530_0 .var "ARLEN", 7 0;
v0000022fbfab4c10_0 .net "ARREADY", 0 0, L_0000022fbfaba160;  alias, 1 drivers
v0000022fbfab3e50_0 .var "ARSIZE", 2 0;
v0000022fbfab4cb0_0 .var "ARVALID", 0 0;
v0000022fbfab39f0_0 .var "AWADDR", 4 0;
v0000022fbfab38b0_0 .var "AWBURST", 1 0;
v0000022fbfab3a90_0 .var "AWID", 3 0;
v0000022fbfab4350_0 .var "AWLEN", 7 0;
v0000022fbfab5570_0 .net "AWREADY", 0 0, L_0000022fbfabe510;  alias, 1 drivers
v0000022fbfab4f30_0 .var "AWSIZE", 2 0;
v0000022fbfab42b0_0 .var "AWVALID", 0 0;
v0000022fbfab3310_0 .net "BID", 3 0, L_0000022fbfabe0b0;  alias, 1 drivers
v0000022fbfab33b0_0 .var "BREADY", 0 0;
v0000022fbfab4490_0 .net "BRESP", 1 0, L_0000022fbfabdc50;  alias, 1 drivers
v0000022fbfab4d50_0 .net "BVALID", 0 0, L_0000022fbfac0d10;  alias, 1 drivers
v0000022fbfab48f0_0 .net "RDATA", 7 0, L_0000022fbfaba340;  alias, 1 drivers
v0000022fbfab3450_0 .var "RELEASE_ACCESS", 0 0;
v0000022fbfab4e90_0 .net "RID", 3 0, L_0000022fbfaba520;  alias, 1 drivers
v0000022fbfab3270_0 .net "RLAST", 0 0, L_0000022fbfab9f80;  alias, 1 drivers
v0000022fbfab3b30_0 .var "RREADY", 0 0;
v0000022fbfab5110_0 .net "RRESP", 1 0, L_0000022fbfaba480;  alias, 1 drivers
v0000022fbfab5610_0 .net "RVALID", 0 0, L_0000022fbfaba0c0;  alias, 1 drivers
v0000022fbfab51b0_0 .net "SET_ACCESS", 0 0, L_0000022fbf997f50;  alias, 1 drivers
v0000022fbfab4df0_0 .var "WDATA", 7 0;
v0000022fbfab3d10_0 .var "WID", 3 0;
v0000022fbfab3130_0 .var "WLAST", 0 0;
v0000022fbfab3ef0_0 .net "WREADY", 0 0, L_0000022fbfabfe10;  alias, 1 drivers
v0000022fbfab5430_0 .var "WVALID", 0 0;
v0000022fbfab5250_0 .var/i "arrayIndex", 31 0;
v0000022fbfab3f90 .array "coefficientsPoly", 3 0, 7 0;
v0000022fbfab54d0_0 .var/i "delayReadCyclesCounter", 31 0;
v0000022fbfab40d0_0 .var/i "delayWriteCyclesCounter", 31 0;
v0000022fbfab4170_0 .var "doReadAddressStall", 0 0;
v0000022fbfab56b0_0 .var "doWriteDataStall", 0 0;
v0000022fbfab3090_0 .var "firstTimeInitArrayAddress", 0 0;
v0000022fbfab5750_0 .var "performOperations", 0 0;
v0000022fbfab4710_0 .var "readAddressARRAY", 4 0;
v0000022fbfab43f0_0 .var "readAddressChannelEnabled", 0 0;
v0000022fbfab57f0_0 .var "readChannelEnabled", 0 0;
v0000022fbfab31d0_0 .var "readTransactionID", 3 0;
v0000022fbfab45d0_0 .var "resetReleaseAccess", 0 0;
v0000022fbfab34f0_0 .var "writeAddressARRAY", 4 0;
v0000022fbfab4670_0 .var "writeAddressChannelEnabled", 0 0;
v0000022fbfab3590_0 .var "writeChannelEnabled", 0 0;
v0000022fbfab4990_0 .var "writeResponseChannelEnabled", 0 0;
v0000022fbfab3630_0 .var "writeStatusBRESP", 1 0;
v0000022fbfab4a30_0 .var "writeTransactionID", 3 0;
E_0000022fbfa38c90 .event posedge, v0000022fbf9f6370_0;
S_0000022fbfaaa490 .scope generate, "register[0]" "register[0]" 6 88, 6 88 0, S_0000022fbfaaaad0;
 .timescale -9 -9;
P_0000022fbfa38b50 .param/l "index" 0 6 88, +C4<00>;
v0000022fbfab3f90_0 .array/port v0000022fbfab3f90, 0;
L_0000022fbf997690 .functor BUFZ 8, v0000022fbfab3f90_0, C4<00000000>, C4<00000000>, C4<00000000>;
v0000022fbfab36d0_0 .net "wireOfPoly", 7 0, L_0000022fbf997690;  1 drivers
S_0000022fbfaa9e50 .scope generate, "register[1]" "register[1]" 6 88, 6 88 0, S_0000022fbfaaaad0;
 .timescale -9 -9;
P_0000022fbfa38cd0 .param/l "index" 0 6 88, +C4<01>;
v0000022fbfab3f90_1 .array/port v0000022fbfab3f90, 1;
L_0000022fbf998880 .functor BUFZ 8, v0000022fbfab3f90_1, C4<00000000>, C4<00000000>, C4<00000000>;
v0000022fbfab3810_0 .net "wireOfPoly", 7 0, L_0000022fbf998880;  1 drivers
S_0000022fbfaaa300 .scope generate, "register[2]" "register[2]" 6 88, 6 88 0, S_0000022fbfaaaad0;
 .timescale -9 -9;
P_0000022fbfa38390 .param/l "index" 0 6 88, +C4<010>;
v0000022fbfab3f90_2 .array/port v0000022fbfab3f90, 2;
L_0000022fbf998c00 .functor BUFZ 8, v0000022fbfab3f90_2, C4<00000000>, C4<00000000>, C4<00000000>;
v0000022fbfab3c70_0 .net "wireOfPoly", 7 0, L_0000022fbf998c00;  1 drivers
S_0000022fbfaaa620 .scope generate, "register[3]" "register[3]" 6 88, 6 88 0, S_0000022fbfaaaad0;
 .timescale -9 -9;
P_0000022fbfa38f50 .param/l "index" 0 6 88, +C4<011>;
v0000022fbfab3f90_3 .array/port v0000022fbfab3f90, 3;
L_0000022fbf998c70 .functor BUFZ 8, v0000022fbfab3f90_3, C4<00000000>, C4<00000000>, C4<00000000>;
v0000022fbfab3770_0 .net "wireOfPoly", 7 0, L_0000022fbf998c70;  1 drivers
    .scope S_0000022fbf8532b0;
T_0 ;
    %pushi/vec4 0, 7, 3;
    %store/vec4 v0000022fbfa9e460_0, 0, 3;
    %pushi/vec4 0, 7, 3;
    %store/vec4 v0000022fbfa9dd80_0, 0, 3;
    %pushi/vec4 1, 0, 3;
    %store/vec4 v0000022fbfa98cb0_0, 0, 3;
    %pushi/vec4 2, 0, 3;
    %store/vec4 v0000022fbfa97450_0, 0, 3;
    %end;
    .thread T_0;
    .scope S_0000022fbf8532b0;
T_1 ;
    %wait E_0000022fbfa38410;
    %load/vec4 v0000022fbfa9ef00_0;
    %cmpi/ne 0, 0, 1;
    %jmp/0xz  T_1.0, 4;
    %load/vec4 v0000022fbfa96ff0_0;
    %ix/load 3, 1, 0;
    %flag_set/imm 4, 0;
    %ix/load 4, 0, 0; Constant delay
    %assign/vec4/a/d v0000022fbfa9efa0, 0, 4;
    %load/vec4 v0000022fbfa98210_0;
    %ix/load 3, 2, 0;
    %flag_set/imm 4, 0;
    %ix/load 4, 0, 0; Constant delay
    %assign/vec4/a/d v0000022fbfa9efa0, 0, 4;
T_1.0 ;
    %jmp T_1;
    .thread T_1;
    .scope S_0000022fbf8532b0;
T_2 ;
    %wait E_0000022fbfa38410;
    %load/vec4 v0000022fbfa9ef00_0;
    %cmpi/e 0, 0, 1;
    %jmp/0xz  T_2.0, 4;
    %pushi/vec4 0, 1, 1;
    %ix/load 3, 1, 0;
    %flag_set/imm 4, 0;
    %ix/load 4, 0, 0; Constant delay
    %assign/vec4/a/d v0000022fbfaa8480, 0, 4;
    %pushi/vec4 0, 1, 1;
    %ix/load 3, 2, 0;
    %flag_set/imm 4, 0;
    %ix/load 4, 0, 0; Constant delay
    %assign/vec4/a/d v0000022fbfaa8480, 0, 4;
    %pushi/vec4 1, 0, 3;
    %assign/vec4 v0000022fbfa9e460_0, 0;
    %load/vec4 v0000022fbfa98cb0_0;
    %assign/vec4 v0000022fbfa9dd80_0, 0;
T_2.0 ;
    %jmp T_2;
    .thread T_2;
    .scope S_0000022fbf8532b0;
T_3 ;
    %wait E_0000022fbfa38410;
    %load/vec4 v0000022fbfa9ef00_0;
    %cmpi/ne 0, 0, 1;
    %jmp/0xz  T_3.0, 4;
    %load/vec4 v0000022fbfa9e460_0;
    %pad/u 4;
    %ix/vec4 4;
    %load/vec4a v0000022fbfa9efa0, 4;
    %cmpi/e 0, 0, 1;
    %jmp/0xz  T_3.2, 4;
    %pushi/vec4 1, 0, 1;
    %load/vec4 v0000022fbfa9e460_0;
    %pad/u 4;
    %ix/vec4 3;
    %ix/load 4, 0, 0; Constant delay
    %assign/vec4/a/d v0000022fbfaa8480, 0, 4;
    %load/vec4 v0000022fbfa9e460_0;
    %assign/vec4 v0000022fbfa9dd80_0, 0;
    %jmp T_3.3;
T_3.2 ;
    %load/vec4 v0000022fbfa9e460_0;
    %pad/u 4;
    %ix/vec4 4;
    %load/vec4a v0000022fbfa9efa0, 4;
    %cmpi/e 1, 0, 1;
    %jmp/0xz  T_3.4, 4;
    %pushi/vec4 0, 0, 1;
    %load/vec4 v0000022fbfa9e460_0;
    %pad/u 4;
    %ix/vec4 3;
    %ix/load 4, 0, 0; Constant delay
    %assign/vec4/a/d v0000022fbfaa8480, 0, 4;
    %load/vec4 v0000022fbfa9e460_0;
    %pad/u 32;
    %cmpi/u 2, 0, 32;
    %jmp/0xz  T_3.6, 5;
    %load/vec4 v0000022fbfa9e460_0;
    %addi 1, 0, 3;
    %assign/vec4 v0000022fbfa9e460_0, 0;
    %load/vec4 v0000022fbfa9e460_0;
    %addi 1, 0, 3;
    %assign/vec4 v0000022fbfa9dd80_0, 0;
    %jmp T_3.7;
T_3.6 ;
    %pushi/vec4 1, 0, 3;
    %assign/vec4 v0000022fbfa9e460_0, 0;
    %pushi/vec4 1, 0, 3;
    %assign/vec4 v0000022fbfa9dd80_0, 0;
T_3.7 ;
T_3.4 ;
T_3.3 ;
T_3.0 ;
    %jmp T_3;
    .thread T_3;
    .scope S_0000022fbfaaaad0;
T_4 ;
    %pushi/vec4 0, 1, 1;
    %store/vec4 v0000022fbfab3450_0, 0, 1;
    %pushi/vec4 0, 15, 4;
    %store/vec4 v0000022fbfab31d0_0, 0, 4;
    %pushi/vec4 0, 1, 1;
    %store/vec4 v0000022fbfab43f0_0, 0, 1;
    %pushi/vec4 0, 1, 1;
    %store/vec4 v0000022fbfab57f0_0, 0, 1;
    %pushi/vec4 0, 15, 4;
    %store/vec4 v0000022fbfab4a30_0, 0, 4;
    %pushi/vec4 0, 1, 1;
    %store/vec4 v0000022fbfab4670_0, 0, 1;
    %pushi/vec4 0, 1, 1;
    %store/vec4 v0000022fbfab3590_0, 0, 1;
    %pushi/vec4 0, 1, 1;
    %store/vec4 v0000022fbfab4990_0, 0, 1;
    %pushi/vec4 0, 1, 1;
    %store/vec4 v0000022fbfab5750_0, 0, 1;
    %pushi/vec4 0, 1, 2;
    %store/vec4 v0000022fbfab3630_0, 0, 2;
    %pushi/vec4 0, 1, 1;
    %store/vec4 v0000022fbfab45d0_0, 0, 1;
    %pushi/vec4 0, 1, 1;
    %store/vec4 v0000022fbfab4170_0, 0, 1;
    %pushi/vec4 0, 1, 1;
    %store/vec4 v0000022fbfab56b0_0, 0, 1;
    %pushi/vec4 0, 0, 32;
    %store/vec4 v0000022fbfab54d0_0, 0, 32;
    %pushi/vec4 0, 0, 32;
    %store/vec4 v0000022fbfab40d0_0, 0, 32;
    %pushi/vec4 0, 1, 1;
    %store/vec4 v0000022fbfab3090_0, 0, 1;
    %pushi/vec4 0, 0, 32;
    %store/vec4 v0000022fbfab5250_0, 0, 32;
    %end;
    .thread T_4;
    .scope S_0000022fbfaaaad0;
T_5 ;
    %wait E_0000022fbfa38c90;
    %load/vec4 v0000022fbfab4b70_0;
    %cmpi/e 0, 0, 1;
    %jmp/0xz  T_5.0, 4;
    %pushi/vec4 0, 15, 4;
    %assign/vec4 v0000022fbfab52f0_0, 0;
    %pushi/vec4 0, 31, 5;
    %assign/vec4 v0000022fbfab4fd0_0, 0;
    %pushi/vec4 0, 3, 2;
    %assign/vec4 v0000022fbfab3bd0_0, 0;
    %pushi/vec4 0, 1, 1;
    %assign/vec4 v0000022fbfab4cb0_0, 0;
    %pushi/vec4 0, 255, 8;
    %assign/vec4 v0000022fbfab4530_0, 0;
    %pushi/vec4 0, 7, 3;
    %assign/vec4 v0000022fbfab3e50_0, 0;
    %pushi/vec4 0, 1, 1;
    %assign/vec4 v0000022fbfab3b30_0, 0;
    %pushi/vec4 2, 0, 8;
    %ix/load 3, 0, 0;
    %flag_set/imm 4, 0;
    %ix/load 4, 0, 0; Constant delay
    %assign/vec4/a/d v0000022fbfab3f90, 0, 4;
    %pushi/vec4 5, 0, 8;
    %ix/load 3, 1, 0;
    %flag_set/imm 4, 0;
    %ix/load 4, 0, 0; Constant delay
    %assign/vec4/a/d v0000022fbfab3f90, 0, 4;
    %pushi/vec4 4, 0, 8;
    %ix/load 3, 2, 0;
    %flag_set/imm 4, 0;
    %ix/load 4, 0, 0; Constant delay
    %assign/vec4/a/d v0000022fbfab3f90, 0, 4;
    %pushi/vec4 3, 0, 8;
    %ix/load 3, 3, 0;
    %flag_set/imm 4, 0;
    %ix/load 4, 0, 0; Constant delay
    %assign/vec4/a/d v0000022fbfab3f90, 0, 4;
    %pushi/vec4 0, 15, 4;
    %assign/vec4 v0000022fbfab3a90_0, 0;
    %pushi/vec4 0, 31, 5;
    %assign/vec4 v0000022fbfab39f0_0, 0;
    %pushi/vec4 0, 3, 2;
    %assign/vec4 v0000022fbfab38b0_0, 0;
    %pushi/vec4 0, 1, 1;
    %assign/vec4 v0000022fbfab42b0_0, 0;
    %pushi/vec4 0, 255, 8;
    %assign/vec4 v0000022fbfab4350_0, 0;
    %pushi/vec4 0, 7, 3;
    %assign/vec4 v0000022fbfab4f30_0, 0;
    %pushi/vec4 0, 15, 4;
    %assign/vec4 v0000022fbfab3d10_0, 0;
    %pushi/vec4 0, 255, 8;
    %assign/vec4 v0000022fbfab4df0_0, 0;
    %pushi/vec4 0, 1, 1;
    %assign/vec4 v0000022fbfab5430_0, 0;
    %pushi/vec4 0, 1, 1;
    %assign/vec4 v0000022fbfab3130_0, 0;
    %pushi/vec4 0, 1, 1;
    %assign/vec4 v0000022fbfab33b0_0, 0;
    %pushi/vec4 0, 31, 5;
    %assign/vec4 v0000022fbfab4710_0, 0;
    %pushi/vec4 0, 31, 5;
    %assign/vec4 v0000022fbfab34f0_0, 0;
    %pushi/vec4 0, 0, 4;
    %assign/vec4 v0000022fbfab31d0_0, 0;
    %pushi/vec4 0, 0, 4;
    %assign/vec4 v0000022fbfab4a30_0, 0;
    %pushi/vec4 1, 0, 1;
    %assign/vec4 v0000022fbfab4670_0, 0;
    %pushi/vec4 0, 0, 1;
    %assign/vec4 v0000022fbfab3450_0, 0;
T_5.0 ;
    %jmp T_5;
    .thread T_5;
    .scope S_0000022fbfaaaad0;
T_6 ;
    %wait E_0000022fbfa38c90;
    %load/vec4 v0000022fbfab4b70_0;
    %pushi/vec4 0, 0, 1;
    %cmp/ne;
    %flag_get/vec4 4;
    %load/vec4 v0000022fbfab51b0_0;
    %pushi/vec4 1, 0, 1;
    %cmp/e;
    %flag_get/vec4 4;
    %and;
    %flag_set/vec4 8;
    %jmp/0xz  T_6.0, 8;
    %load/vec4 v0000022fbfab4170_0;
    %cmpi/e 1, 0, 1;
    %jmp/0xz  T_6.2, 4;
    %pushi/vec4 1, 0, 1;
    %assign/vec4 v0000022fbfab43f0_0, 0;
    %pushi/vec4 0, 0, 1;
    %assign/vec4 v0000022fbfab33b0_0, 0;
    %pushi/vec4 0, 0, 1;
    %assign/vec4 v0000022fbfab4170_0, 0;
T_6.2 ;
T_6.0 ;
    %jmp T_6;
    .thread T_6;
    .scope S_0000022fbfaaaad0;
T_7 ;
    %wait E_0000022fbfa38c90;
    %load/vec4 v0000022fbfab4b70_0;
    %pushi/vec4 0, 0, 1;
    %cmp/ne;
    %flag_get/vec4 4;
    %load/vec4 v0000022fbfab51b0_0;
    %pushi/vec4 1, 0, 1;
    %cmp/e;
    %flag_get/vec4 4;
    %and;
    %flag_set/vec4 8;
    %jmp/0xz  T_7.0, 8;
    %load/vec4 v0000022fbfab56b0_0;
    %cmpi/e 1, 0, 1;
    %jmp/0xz  T_7.2, 4;
    %pushi/vec4 0, 0, 1;
    %assign/vec4 v0000022fbfab42b0_0, 0;
    %load/vec4 v0000022fbfab4a30_0;
    %assign/vec4 v0000022fbfab3d10_0, 0;
    %pushi/vec4 1, 0, 1;
    %assign/vec4 v0000022fbfab5430_0, 0;
    %pushi/vec4 0, 0, 1;
    %assign/vec4 v0000022fbfab3130_0, 0;
    %pushi/vec4 0, 0, 5;
    %assign/vec4 v0000022fbfab34f0_0, 0;
    %pushi/vec4 1, 0, 1;
    %assign/vec4 v0000022fbfab3590_0, 0;
    %pushi/vec4 0, 0, 1;
    %assign/vec4 v0000022fbfab56b0_0, 0;
T_7.2 ;
T_7.0 ;
    %jmp T_7;
    .thread T_7;
    .scope S_0000022fbfaaaad0;
T_8 ;
    %wait E_0000022fbfa38c90;
    %load/vec4 v0000022fbfab4b70_0;
    %pushi/vec4 0, 0, 1;
    %cmp/ne;
    %flag_get/vec4 4;
    %load/vec4 v0000022fbfab51b0_0;
    %pushi/vec4 1, 0, 1;
    %cmp/e;
    %flag_get/vec4 4;
    %and;
    %flag_set/vec4 8;
    %jmp/0xz  T_8.0, 8;
    %load/vec4 v0000022fbfab43f0_0;
    %cmpi/e 1, 0, 1;
    %jmp/0xz  T_8.2, 4;
    %load/vec4 v0000022fbfab31d0_0;
    %assign/vec4 v0000022fbfab52f0_0, 0;
    %pushi/vec4 0, 0, 5;
    %assign/vec4 v0000022fbfab4fd0_0, 0;
    %pushi/vec4 3, 0, 8;
    %assign/vec4 v0000022fbfab4530_0, 0;
    %pushi/vec4 0, 0, 3;
    %assign/vec4 v0000022fbfab3e50_0, 0;
    %pushi/vec4 1, 0, 2;
    %assign/vec4 v0000022fbfab3bd0_0, 0;
    %pushi/vec4 1, 0, 1;
    %assign/vec4 v0000022fbfab4cb0_0, 0;
    %load/vec4 v0000022fbfab4c10_0;
    %cmpi/e 1, 0, 1;
    %jmp/0xz  T_8.4, 4;
    %pushi/vec4 1, 0, 1;
    %assign/vec4 v0000022fbfab3090_0, 0;
    %pushi/vec4 1, 0, 1;
    %assign/vec4 v0000022fbfab3b30_0, 0;
    %pushi/vec4 1, 0, 1;
    %assign/vec4 v0000022fbfab57f0_0, 0;
    %pushi/vec4 0, 0, 1;
    %assign/vec4 v0000022fbfab43f0_0, 0;
T_8.4 ;
T_8.2 ;
T_8.0 ;
    %jmp T_8;
    .thread T_8;
    .scope S_0000022fbfaaaad0;
T_9 ;
    %wait E_0000022fbfa38c90;
    %load/vec4 v0000022fbfab4b70_0;
    %pushi/vec4 0, 0, 1;
    %cmp/ne;
    %flag_get/vec4 4;
    %load/vec4 v0000022fbfab51b0_0;
    %pushi/vec4 1, 0, 1;
    %cmp/e;
    %flag_get/vec4 4;
    %and;
    %flag_set/vec4 8;
    %jmp/0xz  T_9.0, 8;
    %load/vec4 v0000022fbfab57f0_0;
    %cmpi/e 1, 0, 1;
    %jmp/0xz  T_9.2, 4;
    %pushi/vec4 0, 0, 1;
    %assign/vec4 v0000022fbfab4cb0_0, 0;
    %load/vec4 v0000022fbfab3090_0;
    %pushi/vec4 1, 0, 1;
    %cmp/e;
    %flag_get/vec4 4;
    %load/vec4 v0000022fbfab5610_0;
    %pushi/vec4 1, 0, 1;
    %cmp/e;
    %flag_get/vec4 4;
    %and;
    %flag_set/vec4 8;
    %jmp/0xz  T_9.4, 8;
    %pushi/vec4 0, 0, 5;
    %assign/vec4 v0000022fbfab4710_0, 0;
    %pushi/vec4 0, 0, 1;
    %assign/vec4 v0000022fbfab3090_0, 0;
T_9.4 ;
    %load/vec4 v0000022fbfab48f0_0;
    %ix/getv 3, v0000022fbfab4710_0;
    %ix/load 4, 0, 0; Constant delay
    %assign/vec4/a/d v0000022fbfab3f90, 0, 4;
    %load/vec4 v0000022fbfab3bd0_0;
    %dup/vec4;
    %pushi/vec4 0, 0, 2;
    %cmp/u;
    %jmp/1 T_9.6, 6;
    %dup/vec4;
    %pushi/vec4 1, 0, 2;
    %cmp/u;
    %jmp/1 T_9.7, 6;
    %dup/vec4;
    %pushi/vec4 2, 0, 2;
    %cmp/u;
    %jmp/1 T_9.8, 6;
    %jmp T_9.9;
T_9.6 ;
    %load/vec4 v0000022fbfab4710_0;
    %assign/vec4 v0000022fbfab4710_0, 0;
    %jmp T_9.9;
T_9.7 ;
    %load/vec4 v0000022fbfab5610_0;
    %pushi/vec4 1, 0, 1;
    %cmp/e;
    %flag_get/vec4 4;
    %load/vec4 v0000022fbfab5110_0;
    %pushi/vec4 0, 0, 2;
    %cmp/e;
    %flag_get/vec4 4;
    %and;
    %load/vec4 v0000022fbfab4e90_0;
    %load/vec4 v0000022fbfab31d0_0;
    %cmp/e;
    %flag_get/vec4 4;
    %and;
    %flag_set/vec4 8;
    %jmp/0xz  T_9.10, 8;
    %load/vec4 v0000022fbfab4710_0;
    %pad/u 8;
    %load/vec4 v0000022fbfab4530_0;
    %cmp/u;
    %jmp/0xz  T_9.12, 5;
    %load/vec4 v0000022fbfab4710_0;
    %addi 1, 0, 5;
    %assign/vec4 v0000022fbfab4710_0, 0;
T_9.12 ;
T_9.10 ;
    %load/vec4 v0000022fbfab4530_0;
    %load/vec4 v0000022fbfab4710_0;
    %pad/u 8;
    %cmp/u;
    %flag_or 5, 4;
    %jmp/0xz  T_9.14, 5;
    %pushi/vec4 1, 0, 1;
    %assign/vec4 v0000022fbfab5750_0, 0;
    %pushi/vec4 0, 15, 4;
    %assign/vec4 v0000022fbfab52f0_0, 0;
    %pushi/vec4 0, 31, 5;
    %assign/vec4 v0000022fbfab4fd0_0, 0;
    %pushi/vec4 0, 255, 8;
    %assign/vec4 v0000022fbfab4530_0, 0;
    %pushi/vec4 0, 7, 3;
    %assign/vec4 v0000022fbfab3e50_0, 0;
    %pushi/vec4 0, 3, 2;
    %assign/vec4 v0000022fbfab3bd0_0, 0;
    %pushi/vec4 0, 0, 1;
    %assign/vec4 v0000022fbfab3b30_0, 0;
    %pushi/vec4 0, 31, 5;
    %assign/vec4 v0000022fbfab4710_0, 0;
    %pushi/vec4 0, 0, 1;
    %assign/vec4 v0000022fbfab57f0_0, 0;
    %load/vec4 v0000022fbfab31d0_0;
    %addi 1, 0, 4;
    %assign/vec4 v0000022fbfab31d0_0, 0;
T_9.14 ;
    %jmp T_9.9;
T_9.8 ;
    %load/vec4 v0000022fbfab5610_0;
    %pushi/vec4 1, 0, 1;
    %cmp/e;
    %flag_get/vec4 4;
    %load/vec4 v0000022fbfab5110_0;
    %pushi/vec4 0, 0, 2;
    %cmp/e;
    %flag_get/vec4 4;
    %and;
    %load/vec4 v0000022fbfab4e90_0;
    %load/vec4 v0000022fbfab31d0_0;
    %cmp/e;
    %flag_get/vec4 4;
    %and;
    %flag_set/vec4 8;
    %jmp/0xz  T_9.16, 8;
    %load/vec4 v0000022fbfab4710_0;
    %pad/u 8;
    %load/vec4 v0000022fbfab4530_0;
    %cmp/u;
    %jmp/0xz  T_9.18, 5;
    %load/vec4 v0000022fbfab4710_0;
    %addi 1, 0, 5;
    %assign/vec4 v0000022fbfab4710_0, 0;
T_9.18 ;
T_9.16 ;
    %load/vec4 v0000022fbfab4530_0;
    %load/vec4 v0000022fbfab4710_0;
    %pad/u 8;
    %cmp/u;
    %flag_or 5, 4;
    %jmp/0xz  T_9.20, 5;
    %pushi/vec4 0, 0, 5;
    %assign/vec4 v0000022fbfab4710_0, 0;
T_9.20 ;
    %jmp T_9.9;
T_9.9 ;
    %pop/vec4 1;
T_9.2 ;
T_9.0 ;
    %jmp T_9;
    .thread T_9;
    .scope S_0000022fbfaaaad0;
T_10 ;
    %wait E_0000022fbfa38c90;
    %load/vec4 v0000022fbfab4b70_0;
    %pushi/vec4 0, 0, 1;
    %cmp/ne;
    %flag_get/vec4 4;
    %load/vec4 v0000022fbfab51b0_0;
    %pushi/vec4 1, 0, 1;
    %cmp/e;
    %flag_get/vec4 4;
    %and;
    %flag_set/vec4 8;
    %jmp/0xz  T_10.0, 8;
    %load/vec4 v0000022fbfab4670_0;
    %cmpi/e 1, 0, 1;
    %jmp/0xz  T_10.2, 4;
    %load/vec4 v0000022fbfab4a30_0;
    %assign/vec4 v0000022fbfab3a90_0, 0;
    %pushi/vec4 0, 0, 5;
    %assign/vec4 v0000022fbfab39f0_0, 0;
    %pushi/vec4 3, 0, 8;
    %assign/vec4 v0000022fbfab4350_0, 0;
    %pushi/vec4 0, 0, 3;
    %assign/vec4 v0000022fbfab4f30_0, 0;
    %pushi/vec4 1, 0, 2;
    %assign/vec4 v0000022fbfab38b0_0, 0;
    %pushi/vec4 1, 0, 1;
    %assign/vec4 v0000022fbfab42b0_0, 0;
    %pushi/vec4 0, 0, 1;
    %assign/vec4 v0000022fbfab3130_0, 0;
    %load/vec4 v0000022fbfab5570_0;
    %cmpi/e 1, 0, 1;
    %jmp/0xz  T_10.4, 4;
    %pushi/vec4 1, 0, 1;
    %assign/vec4 v0000022fbfab56b0_0, 0;
    %pushi/vec4 0, 0, 1;
    %assign/vec4 v0000022fbfab4670_0, 0;
T_10.4 ;
T_10.2 ;
T_10.0 ;
    %jmp T_10;
    .thread T_10;
    .scope S_0000022fbfaaaad0;
T_11 ;
    %wait E_0000022fbfa38c90;
    %load/vec4 v0000022fbfab4b70_0;
    %pushi/vec4 0, 0, 1;
    %cmp/ne;
    %flag_get/vec4 4;
    %load/vec4 v0000022fbfab51b0_0;
    %pushi/vec4 1, 0, 1;
    %cmp/e;
    %flag_get/vec4 4;
    %and;
    %flag_set/vec4 8;
    %jmp/0xz  T_11.0, 8;
    %load/vec4 v0000022fbfab3590_0;
    %cmpi/e 1, 0, 1;
    %jmp/0xz  T_11.2, 4;
    %pushi/vec4 0, 0, 1;
    %assign/vec4 v0000022fbfab42b0_0, 0;
    %ix/getv 4, v0000022fbfab34f0_0;
    %load/vec4a v0000022fbfab3f90, 4;
    %assign/vec4 v0000022fbfab4df0_0, 0;
    %load/vec4 v0000022fbfab38b0_0;
    %dup/vec4;
    %pushi/vec4 0, 0, 2;
    %cmp/u;
    %jmp/1 T_11.4, 6;
    %dup/vec4;
    %pushi/vec4 1, 0, 2;
    %cmp/u;
    %jmp/1 T_11.5, 6;
    %dup/vec4;
    %pushi/vec4 2, 0, 2;
    %cmp/u;
    %jmp/1 T_11.6, 6;
    %jmp T_11.7;
T_11.4 ;
    %load/vec4 v0000022fbfab4710_0;
    %assign/vec4 v0000022fbfab4710_0, 0;
    %jmp T_11.7;
T_11.5 ;
    %load/vec4 v0000022fbfab3ef0_0;
    %cmpi/e 1, 0, 1;
    %jmp/0xz  T_11.8, 4;
    %load/vec4 v0000022fbfab34f0_0;
    %addi 1, 0, 5;
    %assign/vec4 v0000022fbfab34f0_0, 0;
    %load/vec4 v0000022fbfab4350_0;
    %load/vec4 v0000022fbfab34f0_0;
    %pad/u 8;
    %cmp/u;
    %flag_or 5, 4;
    %jmp/0xz  T_11.10, 5;
    %pushi/vec4 1, 0, 1;
    %assign/vec4 v0000022fbfab4990_0, 0;
    %pushi/vec4 1, 0, 1;
    %assign/vec4 v0000022fbfab3130_0, 0;
    %pushi/vec4 0, 0, 1;
    %assign/vec4 v0000022fbfab5430_0, 0;
    %pushi/vec4 0, 31, 5;
    %assign/vec4 v0000022fbfab34f0_0, 0;
    %pushi/vec4 0, 0, 1;
    %assign/vec4 v0000022fbfab3590_0, 0;
T_11.10 ;
T_11.8 ;
    %jmp T_11.7;
T_11.6 ;
    %load/vec4 v0000022fbfab3ef0_0;
    %cmpi/e 1, 0, 1;
    %jmp/0xz  T_11.12, 4;
    %load/vec4 v0000022fbfab34f0_0;
    %addi 1, 0, 5;
    %assign/vec4 v0000022fbfab34f0_0, 0;
    %load/vec4 v0000022fbfab4350_0;
    %load/vec4 v0000022fbfab34f0_0;
    %pad/u 8;
    %cmp/u;
    %flag_or 5, 4;
    %jmp/0xz  T_11.14, 5;
    %pushi/vec4 0, 0, 5;
    %assign/vec4 v0000022fbfab34f0_0, 0;
T_11.14 ;
T_11.12 ;
    %jmp T_11.7;
T_11.7 ;
    %pop/vec4 1;
T_11.2 ;
T_11.0 ;
    %jmp T_11;
    .thread T_11;
    .scope S_0000022fbfaaaad0;
T_12 ;
    %wait E_0000022fbfa38c90;
    %load/vec4 v0000022fbfab4b70_0;
    %pushi/vec4 0, 0, 1;
    %cmp/ne;
    %flag_get/vec4 4;
    %load/vec4 v0000022fbfab51b0_0;
    %pushi/vec4 1, 0, 1;
    %cmp/e;
    %flag_get/vec4 4;
    %and;
    %flag_set/vec4 8;
    %jmp/0xz  T_12.0, 8;
    %load/vec4 v0000022fbfab4990_0;
    %cmpi/e 1, 0, 1;
    %jmp/0xz  T_12.2, 4;
    %pushi/vec4 0, 15, 4;
    %assign/vec4 v0000022fbfab3a90_0, 0;
    %pushi/vec4 0, 31, 5;
    %assign/vec4 v0000022fbfab39f0_0, 0;
    %pushi/vec4 0, 255, 8;
    %assign/vec4 v0000022fbfab4350_0, 0;
    %pushi/vec4 0, 7, 3;
    %assign/vec4 v0000022fbfab4f30_0, 0;
    %pushi/vec4 0, 3, 2;
    %assign/vec4 v0000022fbfab38b0_0, 0;
    %pushi/vec4 0, 15, 4;
    %assign/vec4 v0000022fbfab3d10_0, 0;
    %pushi/vec4 0, 255, 8;
    %assign/vec4 v0000022fbfab4df0_0, 0;
    %pushi/vec4 0, 0, 1;
    %assign/vec4 v0000022fbfab3130_0, 0;
    %pushi/vec4 1, 0, 1;
    %assign/vec4 v0000022fbfab33b0_0, 0;
    %load/vec4 v0000022fbfab4d50_0;
    %pushi/vec4 1, 0, 1;
    %cmp/e;
    %flag_get/vec4 4;
    %load/vec4 v0000022fbfab3310_0;
    %load/vec4 v0000022fbfab4a30_0;
    %cmp/e;
    %flag_get/vec4 4;
    %and;
    %flag_set/vec4 8;
    %jmp/0xz  T_12.4, 8;
    %load/vec4 v0000022fbfab4490_0;
    %assign/vec4 v0000022fbfab3630_0, 0;
    %pushi/vec4 0, 255, 8;
    %assign/vec4 v0000022fbfab4df0_0, 0;
    %load/vec4 v0000022fbfab4a30_0;
    %addi 1, 0, 4;
    %assign/vec4 v0000022fbfab4a30_0, 0;
    %pushi/vec4 1, 0, 1;
    %assign/vec4 v0000022fbfab3450_0, 0;
    %pushi/vec4 1, 0, 1;
    %assign/vec4 v0000022fbfab45d0_0, 0;
    %pushi/vec4 0, 0, 1;
    %assign/vec4 v0000022fbfab4990_0, 0;
T_12.4 ;
T_12.2 ;
T_12.0 ;
    %jmp T_12;
    .thread T_12;
    .scope S_0000022fbfaaaad0;
T_13 ;
    %wait E_0000022fbfa38c90;
    %load/vec4 v0000022fbfab4b70_0;
    %cmpi/ne 0, 0, 1;
    %jmp/0xz  T_13.0, 4;
    %load/vec4 v0000022fbfab45d0_0;
    %cmpi/e 1, 0, 1;
    %jmp/0xz  T_13.2, 4;
    %pushi/vec4 1, 0, 1;
    %assign/vec4 v0000022fbfab4670_0, 0;
    %pushi/vec4 0, 0, 1;
    %assign/vec4 v0000022fbfab33b0_0, 0;
    %pushi/vec4 0, 0, 1;
    %assign/vec4 v0000022fbfab3450_0, 0;
    %pushi/vec4 0, 0, 1;
    %assign/vec4 v0000022fbfab45d0_0, 0;
T_13.2 ;
T_13.0 ;
    %jmp T_13;
    .thread T_13;
    .scope S_0000022fbfaaaad0;
T_14 ;
    %wait E_0000022fbfa38c90;
    %load/vec4 v0000022fbfab5750_0;
    %pushi/vec4 1, 0, 1;
    %cmp/e;
    %flag_get/vec4 4;
    %load/vec4 v0000022fbfab51b0_0;
    %pushi/vec4 1, 0, 1;
    %cmp/e;
    %flag_get/vec4 4;
    %and;
    %flag_set/vec4 8;
    %jmp/0xz  T_14.0, 8;
    %pushi/vec4 0, 0, 32;
    %store/vec4 v0000022fbfab5250_0, 0, 32;
T_14.2 ;
    %load/vec4 v0000022fbfab5250_0;
    %cmpi/s 4, 0, 32;
    %jmp/0xz T_14.3, 5;
    %ix/getv/s 4, v0000022fbfab5250_0;
    %load/vec4a v0000022fbfab3f90, 4;
    %addi 2, 0, 8;
    %ix/getv/s 3, v0000022fbfab5250_0;
    %ix/load 4, 0, 0; Constant delay
    %assign/vec4/a/d v0000022fbfab3f90, 0, 4;
    %load/vec4 v0000022fbfab5250_0;
    %addi 1, 0, 32;
    %store/vec4 v0000022fbfab5250_0, 0, 32;
    %jmp T_14.2;
T_14.3 ;
    %pushi/vec4 1, 0, 1;
    %assign/vec4 v0000022fbfab4670_0, 0;
    %pushi/vec4 0, 0, 1;
    %assign/vec4 v0000022fbfab5750_0, 0;
T_14.0 ;
    %jmp T_14;
    .thread T_14;
    .scope S_0000022fbf8e80a0;
T_15 ;
    %pushi/vec4 0, 1, 1;
    %store/vec4 v0000022fbfaa91a0_0, 0, 1;
    %pushi/vec4 0, 15, 4;
    %store/vec4 v0000022fbfaa8160_0, 0, 4;
    %pushi/vec4 0, 1, 1;
    %store/vec4 v0000022fbfaa8020_0, 0, 1;
    %pushi/vec4 0, 1, 1;
    %store/vec4 v0000022fbfaa80c0_0, 0, 1;
    %pushi/vec4 0, 15, 4;
    %store/vec4 v0000022fbfab47b0_0, 0, 4;
    %pushi/vec4 0, 1, 1;
    %store/vec4 v0000022fbfab4210_0, 0, 1;
    %pushi/vec4 0, 1, 1;
    %store/vec4 v0000022fbfab4ad0_0, 0, 1;
    %pushi/vec4 0, 1, 1;
    %store/vec4 v0000022fbfab3950_0, 0, 1;
    %pushi/vec4 0, 1, 1;
    %store/vec4 v0000022fbfaa7ee0_0, 0, 1;
    %pushi/vec4 0, 1, 2;
    %store/vec4 v0000022fbfab5070_0, 0, 2;
    %pushi/vec4 0, 1, 1;
    %store/vec4 v0000022fbfab4030_0, 0, 1;
    %pushi/vec4 0, 1, 1;
    %store/vec4 v0000022fbfaa7c60_0, 0, 1;
    %pushi/vec4 0, 1, 1;
    %store/vec4 v0000022fbfaa7d00_0, 0, 1;
    %pushi/vec4 0, 0, 32;
    %store/vec4 v0000022fbfaa8e80_0, 0, 32;
    %pushi/vec4 0, 0, 32;
    %store/vec4 v0000022fbfaa7bc0_0, 0, 32;
    %pushi/vec4 0, 1, 1;
    %store/vec4 v0000022fbfaa7da0_0, 0, 1;
    %pushi/vec4 0, 0, 32;
    %store/vec4 v0000022fbfaa8d40_0, 0, 32;
    %end;
    .thread T_15;
    .scope S_0000022fbf8e80a0;
T_16 ;
    %wait E_0000022fbfa38350;
    %load/vec4 v0000022fbfaa88e0_0;
    %cmpi/e 0, 0, 1;
    %jmp/0xz  T_16.0, 4;
    %pushi/vec4 0, 15, 4;
    %assign/vec4 v0000022fbfaa8660_0, 0;
    %pushi/vec4 0, 31, 5;
    %assign/vec4 v0000022fbfaa9560_0, 0;
    %pushi/vec4 0, 3, 2;
    %assign/vec4 v0000022fbfaa87a0_0, 0;
    %pushi/vec4 0, 1, 1;
    %assign/vec4 v0000022fbfaa8980_0, 0;
    %pushi/vec4 0, 255, 8;
    %assign/vec4 v0000022fbfaa8700_0, 0;
    %pushi/vec4 0, 7, 3;
    %assign/vec4 v0000022fbfaa8840_0, 0;
    %pushi/vec4 0, 1, 1;
    %assign/vec4 v0000022fbfaa96a0_0, 0;
    %pushi/vec4 0, 255, 8;
    %ix/load 3, 0, 0;
    %flag_set/imm 4, 0;
    %ix/load 4, 0, 0; Constant delay
    %assign/vec4/a/d v0000022fbfaa8de0, 0, 4;
    %pushi/vec4 0, 255, 8;
    %ix/load 3, 1, 0;
    %flag_set/imm 4, 0;
    %ix/load 4, 0, 0; Constant delay
    %assign/vec4/a/d v0000022fbfaa8de0, 0, 4;
    %pushi/vec4 0, 255, 8;
    %ix/load 3, 2, 0;
    %flag_set/imm 4, 0;
    %ix/load 4, 0, 0; Constant delay
    %assign/vec4/a/d v0000022fbfaa8de0, 0, 4;
    %pushi/vec4 0, 255, 8;
    %ix/load 3, 3, 0;
    %flag_set/imm 4, 0;
    %ix/load 4, 0, 0; Constant delay
    %assign/vec4/a/d v0000022fbfaa8de0, 0, 4;
    %pushi/vec4 0, 15, 4;
    %assign/vec4 v0000022fbfaa8fc0_0, 0;
    %pushi/vec4 0, 31, 5;
    %assign/vec4 v0000022fbfaa92e0_0, 0;
    %pushi/vec4 0, 3, 2;
    %assign/vec4 v0000022fbfaa8a20_0, 0;
    %pushi/vec4 0, 1, 1;
    %assign/vec4 v0000022fbfaa97e0_0, 0;
    %pushi/vec4 0, 255, 8;
    %assign/vec4 v0000022fbfaa8ac0_0, 0;
    %pushi/vec4 0, 7, 3;
    %assign/vec4 v0000022fbfaa8b60_0, 0;
    %pushi/vec4 0, 15, 4;
    %assign/vec4 v0000022fbfaa8ca0_0, 0;
    %pushi/vec4 0, 255, 8;
    %assign/vec4 v0000022fbfaa9740_0, 0;
    %pushi/vec4 0, 1, 1;
    %assign/vec4 v0000022fbfaa8340_0, 0;
    %pushi/vec4 0, 1, 1;
    %assign/vec4 v0000022fbfaa9920_0, 0;
    %pushi/vec4 0, 1, 1;
    %assign/vec4 v0000022fbfaa9880_0, 0;
    %pushi/vec4 0, 31, 5;
    %assign/vec4 v0000022fbfaa7f80_0, 0;
    %pushi/vec4 0, 31, 5;
    %assign/vec4 v0000022fbfab3db0_0, 0;
    %pushi/vec4 0, 0, 4;
    %assign/vec4 v0000022fbfaa8160_0, 0;
    %pushi/vec4 0, 0, 4;
    %assign/vec4 v0000022fbfab47b0_0, 0;
    %pushi/vec4 1, 0, 1;
    %assign/vec4 v0000022fbfaa7c60_0, 0;
    %pushi/vec4 0, 0, 1;
    %assign/vec4 v0000022fbfaa91a0_0, 0;
T_16.0 ;
    %jmp T_16;
    .thread T_16;
    .scope S_0000022fbf8e80a0;
T_17 ;
    %wait E_0000022fbfa38350;
    %load/vec4 v0000022fbfaa88e0_0;
    %pushi/vec4 0, 0, 1;
    %cmp/ne;
    %flag_get/vec4 4;
    %load/vec4 v0000022fbfaa8200_0;
    %pushi/vec4 1, 0, 1;
    %cmp/e;
    %flag_get/vec4 4;
    %and;
    %flag_set/vec4 8;
    %jmp/0xz  T_17.0, 8;
    %load/vec4 v0000022fbfaa7c60_0;
    %cmpi/e 1, 0, 1;
    %jmp/0xz  T_17.2, 4;
    %pushi/vec4 1, 0, 1;
    %assign/vec4 v0000022fbfaa8020_0, 0;
    %pushi/vec4 0, 0, 1;
    %assign/vec4 v0000022fbfaa9880_0, 0;
    %pushi/vec4 0, 0, 1;
    %assign/vec4 v0000022fbfaa7c60_0, 0;
T_17.2 ;
T_17.0 ;
    %jmp T_17;
    .thread T_17;
    .scope S_0000022fbf8e80a0;
T_18 ;
    %wait E_0000022fbfa38350;
    %load/vec4 v0000022fbfaa88e0_0;
    %pushi/vec4 0, 0, 1;
    %cmp/ne;
    %flag_get/vec4 4;
    %load/vec4 v0000022fbfaa8200_0;
    %pushi/vec4 1, 0, 1;
    %cmp/e;
    %flag_get/vec4 4;
    %and;
    %flag_set/vec4 8;
    %jmp/0xz  T_18.0, 8;
    %load/vec4 v0000022fbfaa7d00_0;
    %cmpi/e 1, 0, 1;
    %jmp/0xz  T_18.2, 4;
    %pushi/vec4 0, 0, 1;
    %assign/vec4 v0000022fbfaa97e0_0, 0;
    %load/vec4 v0000022fbfab47b0_0;
    %assign/vec4 v0000022fbfaa8ca0_0, 0;
    %pushi/vec4 1, 0, 1;
    %assign/vec4 v0000022fbfaa8340_0, 0;
    %pushi/vec4 0, 0, 1;
    %assign/vec4 v0000022fbfaa9920_0, 0;
    %pushi/vec4 0, 0, 5;
    %assign/vec4 v0000022fbfab3db0_0, 0;
    %pushi/vec4 1, 0, 1;
    %assign/vec4 v0000022fbfab4ad0_0, 0;
    %pushi/vec4 0, 0, 1;
    %assign/vec4 v0000022fbfaa7d00_0, 0;
T_18.2 ;
T_18.0 ;
    %jmp T_18;
    .thread T_18;
    .scope S_0000022fbf8e80a0;
T_19 ;
    %wait E_0000022fbfa38350;
    %load/vec4 v0000022fbfaa88e0_0;
    %pushi/vec4 0, 0, 1;
    %cmp/ne;
    %flag_get/vec4 4;
    %load/vec4 v0000022fbfaa8200_0;
    %pushi/vec4 1, 0, 1;
    %cmp/e;
    %flag_get/vec4 4;
    %and;
    %flag_set/vec4 8;
    %jmp/0xz  T_19.0, 8;
    %load/vec4 v0000022fbfaa8020_0;
    %cmpi/e 1, 0, 1;
    %jmp/0xz  T_19.2, 4;
    %load/vec4 v0000022fbfaa8160_0;
    %assign/vec4 v0000022fbfaa8660_0, 0;
    %pushi/vec4 0, 0, 5;
    %assign/vec4 v0000022fbfaa9560_0, 0;
    %pushi/vec4 3, 0, 8;
    %assign/vec4 v0000022fbfaa8700_0, 0;
    %pushi/vec4 0, 0, 3;
    %assign/vec4 v0000022fbfaa8840_0, 0;
    %pushi/vec4 1, 0, 2;
    %assign/vec4 v0000022fbfaa87a0_0, 0;
    %pushi/vec4 1, 0, 1;
    %assign/vec4 v0000022fbfaa8980_0, 0;
    %load/vec4 v0000022fbfaa83e0_0;
    %cmpi/e 1, 0, 1;
    %jmp/0xz  T_19.4, 4;
    %pushi/vec4 1, 0, 1;
    %assign/vec4 v0000022fbfaa7da0_0, 0;
    %pushi/vec4 1, 0, 1;
    %assign/vec4 v0000022fbfaa96a0_0, 0;
    %pushi/vec4 1, 0, 1;
    %assign/vec4 v0000022fbfaa80c0_0, 0;
    %pushi/vec4 0, 0, 1;
    %assign/vec4 v0000022fbfaa8020_0, 0;
T_19.4 ;
T_19.2 ;
T_19.0 ;
    %jmp T_19;
    .thread T_19;
    .scope S_0000022fbf8e80a0;
T_20 ;
    %wait E_0000022fbfa38350;
    %load/vec4 v0000022fbfaa88e0_0;
    %pushi/vec4 0, 0, 1;
    %cmp/ne;
    %flag_get/vec4 4;
    %load/vec4 v0000022fbfaa8200_0;
    %pushi/vec4 1, 0, 1;
    %cmp/e;
    %flag_get/vec4 4;
    %and;
    %flag_set/vec4 8;
    %jmp/0xz  T_20.0, 8;
    %load/vec4 v0000022fbfaa80c0_0;
    %cmpi/e 1, 0, 1;
    %jmp/0xz  T_20.2, 4;
    %pushi/vec4 0, 0, 1;
    %assign/vec4 v0000022fbfaa8980_0, 0;
    %load/vec4 v0000022fbfaa7da0_0;
    %pushi/vec4 1, 0, 1;
    %cmp/e;
    %flag_get/vec4 4;
    %load/vec4 v0000022fbfaa99c0_0;
    %pushi/vec4 1, 0, 1;
    %cmp/e;
    %flag_get/vec4 4;
    %and;
    %flag_set/vec4 8;
    %jmp/0xz  T_20.4, 8;
    %pushi/vec4 0, 0, 5;
    %assign/vec4 v0000022fbfaa7f80_0, 0;
    %pushi/vec4 0, 0, 1;
    %assign/vec4 v0000022fbfaa7da0_0, 0;
T_20.4 ;
    %load/vec4 v0000022fbfaa9380_0;
    %ix/getv 3, v0000022fbfaa7f80_0;
    %ix/load 4, 0, 0; Constant delay
    %assign/vec4/a/d v0000022fbfaa8de0, 0, 4;
    %load/vec4 v0000022fbfaa87a0_0;
    %dup/vec4;
    %pushi/vec4 0, 0, 2;
    %cmp/u;
    %jmp/1 T_20.6, 6;
    %dup/vec4;
    %pushi/vec4 1, 0, 2;
    %cmp/u;
    %jmp/1 T_20.7, 6;
    %dup/vec4;
    %pushi/vec4 2, 0, 2;
    %cmp/u;
    %jmp/1 T_20.8, 6;
    %jmp T_20.9;
T_20.6 ;
    %load/vec4 v0000022fbfaa7f80_0;
    %assign/vec4 v0000022fbfaa7f80_0, 0;
    %jmp T_20.9;
T_20.7 ;
    %load/vec4 v0000022fbfaa99c0_0;
    %pushi/vec4 1, 0, 1;
    %cmp/e;
    %flag_get/vec4 4;
    %load/vec4 v0000022fbfaa8c00_0;
    %pushi/vec4 0, 0, 2;
    %cmp/e;
    %flag_get/vec4 4;
    %and;
    %load/vec4 v0000022fbfaa9600_0;
    %load/vec4 v0000022fbfaa8160_0;
    %cmp/e;
    %flag_get/vec4 4;
    %and;
    %flag_set/vec4 8;
    %jmp/0xz  T_20.10, 8;
    %load/vec4 v0000022fbfaa7f80_0;
    %pad/u 8;
    %load/vec4 v0000022fbfaa8700_0;
    %cmp/u;
    %jmp/0xz  T_20.12, 5;
    %load/vec4 v0000022fbfaa7f80_0;
    %addi 1, 0, 5;
    %assign/vec4 v0000022fbfaa7f80_0, 0;
T_20.12 ;
T_20.10 ;
    %load/vec4 v0000022fbfaa8700_0;
    %load/vec4 v0000022fbfaa7f80_0;
    %pad/u 8;
    %cmp/u;
    %flag_or 5, 4;
    %jmp/0xz  T_20.14, 5;
    %pushi/vec4 1, 0, 1;
    %assign/vec4 v0000022fbfaa7ee0_0, 0;
    %pushi/vec4 0, 15, 4;
    %assign/vec4 v0000022fbfaa8660_0, 0;
    %pushi/vec4 0, 31, 5;
    %assign/vec4 v0000022fbfaa9560_0, 0;
    %pushi/vec4 0, 255, 8;
    %assign/vec4 v0000022fbfaa8700_0, 0;
    %pushi/vec4 0, 7, 3;
    %assign/vec4 v0000022fbfaa8840_0, 0;
    %pushi/vec4 0, 3, 2;
    %assign/vec4 v0000022fbfaa87a0_0, 0;
    %pushi/vec4 0, 0, 1;
    %assign/vec4 v0000022fbfaa96a0_0, 0;
    %pushi/vec4 0, 31, 5;
    %assign/vec4 v0000022fbfaa7f80_0, 0;
    %pushi/vec4 0, 0, 1;
    %assign/vec4 v0000022fbfaa80c0_0, 0;
    %load/vec4 v0000022fbfaa8160_0;
    %addi 1, 0, 4;
    %assign/vec4 v0000022fbfaa8160_0, 0;
T_20.14 ;
    %jmp T_20.9;
T_20.8 ;
    %load/vec4 v0000022fbfaa99c0_0;
    %pushi/vec4 1, 0, 1;
    %cmp/e;
    %flag_get/vec4 4;
    %load/vec4 v0000022fbfaa8c00_0;
    %pushi/vec4 0, 0, 2;
    %cmp/e;
    %flag_get/vec4 4;
    %and;
    %load/vec4 v0000022fbfaa9600_0;
    %load/vec4 v0000022fbfaa8160_0;
    %cmp/e;
    %flag_get/vec4 4;
    %and;
    %flag_set/vec4 8;
    %jmp/0xz  T_20.16, 8;
    %load/vec4 v0000022fbfaa7f80_0;
    %pad/u 8;
    %load/vec4 v0000022fbfaa8700_0;
    %cmp/u;
    %jmp/0xz  T_20.18, 5;
    %load/vec4 v0000022fbfaa7f80_0;
    %addi 1, 0, 5;
    %assign/vec4 v0000022fbfaa7f80_0, 0;
T_20.18 ;
T_20.16 ;
    %load/vec4 v0000022fbfaa8700_0;
    %load/vec4 v0000022fbfaa7f80_0;
    %pad/u 8;
    %cmp/u;
    %flag_or 5, 4;
    %jmp/0xz  T_20.20, 5;
    %pushi/vec4 0, 0, 5;
    %assign/vec4 v0000022fbfaa7f80_0, 0;
T_20.20 ;
    %jmp T_20.9;
T_20.9 ;
    %pop/vec4 1;
T_20.2 ;
T_20.0 ;
    %jmp T_20;
    .thread T_20;
    .scope S_0000022fbf8e80a0;
T_21 ;
    %wait E_0000022fbfa38350;
    %load/vec4 v0000022fbfaa88e0_0;
    %pushi/vec4 0, 0, 1;
    %cmp/ne;
    %flag_get/vec4 4;
    %load/vec4 v0000022fbfaa8200_0;
    %pushi/vec4 1, 0, 1;
    %cmp/e;
    %flag_get/vec4 4;
    %and;
    %flag_set/vec4 8;
    %jmp/0xz  T_21.0, 8;
    %load/vec4 v0000022fbfab4210_0;
    %cmpi/e 1, 0, 1;
    %jmp/0xz  T_21.2, 4;
    %load/vec4 v0000022fbfab47b0_0;
    %assign/vec4 v0000022fbfaa8fc0_0, 0;
    %pushi/vec4 0, 0, 5;
    %assign/vec4 v0000022fbfaa92e0_0, 0;
    %pushi/vec4 3, 0, 8;
    %assign/vec4 v0000022fbfaa8ac0_0, 0;
    %pushi/vec4 0, 0, 3;
    %assign/vec4 v0000022fbfaa8b60_0, 0;
    %pushi/vec4 1, 0, 2;
    %assign/vec4 v0000022fbfaa8a20_0, 0;
    %pushi/vec4 1, 0, 1;
    %assign/vec4 v0000022fbfaa97e0_0, 0;
    %pushi/vec4 0, 0, 1;
    %assign/vec4 v0000022fbfaa9920_0, 0;
    %load/vec4 v0000022fbfaa9420_0;
    %cmpi/e 1, 0, 1;
    %jmp/0xz  T_21.4, 4;
    %pushi/vec4 1, 0, 1;
    %assign/vec4 v0000022fbfaa7d00_0, 0;
    %pushi/vec4 0, 0, 1;
    %assign/vec4 v0000022fbfab4210_0, 0;
T_21.4 ;
T_21.2 ;
T_21.0 ;
    %jmp T_21;
    .thread T_21;
    .scope S_0000022fbf8e80a0;
T_22 ;
    %wait E_0000022fbfa38350;
    %load/vec4 v0000022fbfaa88e0_0;
    %pushi/vec4 0, 0, 1;
    %cmp/ne;
    %flag_get/vec4 4;
    %load/vec4 v0000022fbfaa8200_0;
    %pushi/vec4 1, 0, 1;
    %cmp/e;
    %flag_get/vec4 4;
    %and;
    %flag_set/vec4 8;
    %jmp/0xz  T_22.0, 8;
    %load/vec4 v0000022fbfab4ad0_0;
    %cmpi/e 1, 0, 1;
    %jmp/0xz  T_22.2, 4;
    %pushi/vec4 0, 0, 1;
    %assign/vec4 v0000022fbfaa97e0_0, 0;
    %ix/getv 4, v0000022fbfab3db0_0;
    %load/vec4a v0000022fbfaa8de0, 4;
    %assign/vec4 v0000022fbfaa9740_0, 0;
    %load/vec4 v0000022fbfaa8a20_0;
    %dup/vec4;
    %pushi/vec4 0, 0, 2;
    %cmp/u;
    %jmp/1 T_22.4, 6;
    %dup/vec4;
    %pushi/vec4 1, 0, 2;
    %cmp/u;
    %jmp/1 T_22.5, 6;
    %dup/vec4;
    %pushi/vec4 2, 0, 2;
    %cmp/u;
    %jmp/1 T_22.6, 6;
    %jmp T_22.7;
T_22.4 ;
    %load/vec4 v0000022fbfaa7f80_0;
    %assign/vec4 v0000022fbfaa7f80_0, 0;
    %jmp T_22.7;
T_22.5 ;
    %load/vec4 v0000022fbfaa7b20_0;
    %cmpi/e 1, 0, 1;
    %jmp/0xz  T_22.8, 4;
    %load/vec4 v0000022fbfab3db0_0;
    %addi 1, 0, 5;
    %assign/vec4 v0000022fbfab3db0_0, 0;
    %load/vec4 v0000022fbfaa8ac0_0;
    %load/vec4 v0000022fbfab3db0_0;
    %pad/u 8;
    %cmp/u;
    %flag_or 5, 4;
    %jmp/0xz  T_22.10, 5;
    %pushi/vec4 1, 0, 1;
    %assign/vec4 v0000022fbfab3950_0, 0;
    %pushi/vec4 1, 0, 1;
    %assign/vec4 v0000022fbfaa9920_0, 0;
    %pushi/vec4 0, 0, 1;
    %assign/vec4 v0000022fbfaa8340_0, 0;
    %pushi/vec4 0, 31, 5;
    %assign/vec4 v0000022fbfab3db0_0, 0;
    %pushi/vec4 0, 0, 1;
    %assign/vec4 v0000022fbfab4ad0_0, 0;
T_22.10 ;
T_22.8 ;
    %jmp T_22.7;
T_22.6 ;
    %load/vec4 v0000022fbfaa7b20_0;
    %cmpi/e 1, 0, 1;
    %jmp/0xz  T_22.12, 4;
    %load/vec4 v0000022fbfab3db0_0;
    %addi 1, 0, 5;
    %assign/vec4 v0000022fbfab3db0_0, 0;
    %load/vec4 v0000022fbfaa8ac0_0;
    %load/vec4 v0000022fbfab3db0_0;
    %pad/u 8;
    %cmp/u;
    %flag_or 5, 4;
    %jmp/0xz  T_22.14, 5;
    %pushi/vec4 0, 0, 5;
    %assign/vec4 v0000022fbfab3db0_0, 0;
T_22.14 ;
T_22.12 ;
    %jmp T_22.7;
T_22.7 ;
    %pop/vec4 1;
T_22.2 ;
T_22.0 ;
    %jmp T_22;
    .thread T_22;
    .scope S_0000022fbf8e80a0;
T_23 ;
    %wait E_0000022fbfa38350;
    %load/vec4 v0000022fbfaa88e0_0;
    %pushi/vec4 0, 0, 1;
    %cmp/ne;
    %flag_get/vec4 4;
    %load/vec4 v0000022fbfaa8200_0;
    %pushi/vec4 1, 0, 1;
    %cmp/e;
    %flag_get/vec4 4;
    %and;
    %flag_set/vec4 8;
    %jmp/0xz  T_23.0, 8;
    %load/vec4 v0000022fbfab3950_0;
    %cmpi/e 1, 0, 1;
    %jmp/0xz  T_23.2, 4;
    %pushi/vec4 0, 15, 4;
    %assign/vec4 v0000022fbfaa8fc0_0, 0;
    %pushi/vec4 0, 31, 5;
    %assign/vec4 v0000022fbfaa92e0_0, 0;
    %pushi/vec4 0, 255, 8;
    %assign/vec4 v0000022fbfaa8ac0_0, 0;
    %pushi/vec4 0, 7, 3;
    %assign/vec4 v0000022fbfaa8b60_0, 0;
    %pushi/vec4 0, 3, 2;
    %assign/vec4 v0000022fbfaa8a20_0, 0;
    %pushi/vec4 0, 15, 4;
    %assign/vec4 v0000022fbfaa8ca0_0, 0;
    %pushi/vec4 0, 255, 8;
    %assign/vec4 v0000022fbfaa9740_0, 0;
    %pushi/vec4 0, 0, 1;
    %assign/vec4 v0000022fbfaa9920_0, 0;
    %pushi/vec4 1, 0, 1;
    %assign/vec4 v0000022fbfaa9880_0, 0;
    %load/vec4 v0000022fbfaa9060_0;
    %pushi/vec4 1, 0, 1;
    %cmp/e;
    %flag_get/vec4 4;
    %load/vec4 v0000022fbfaa9240_0;
    %load/vec4 v0000022fbfab47b0_0;
    %cmp/e;
    %flag_get/vec4 4;
    %and;
    %flag_set/vec4 8;
    %jmp/0xz  T_23.4, 8;
    %pushi/vec4 1, 0, 1;
    %assign/vec4 v0000022fbfaa7c60_0, 0;
    %load/vec4 v0000022fbfaa9100_0;
    %assign/vec4 v0000022fbfab5070_0, 0;
    %pushi/vec4 0, 255, 8;
    %assign/vec4 v0000022fbfaa9740_0, 0;
    %load/vec4 v0000022fbfab47b0_0;
    %addi 1, 0, 4;
    %assign/vec4 v0000022fbfab47b0_0, 0;
    %pushi/vec4 1, 0, 1;
    %assign/vec4 v0000022fbfaa91a0_0, 0;
    %pushi/vec4 1, 0, 1;
    %assign/vec4 v0000022fbfab4030_0, 0;
    %pushi/vec4 0, 0, 1;
    %assign/vec4 v0000022fbfab3950_0, 0;
T_23.4 ;
T_23.2 ;
T_23.0 ;
    %jmp T_23;
    .thread T_23;
    .scope S_0000022fbf8e80a0;
T_24 ;
    %wait E_0000022fbfa38350;
    %load/vec4 v0000022fbfaa88e0_0;
    %cmpi/ne 0, 0, 1;
    %jmp/0xz  T_24.0, 4;
    %load/vec4 v0000022fbfab4030_0;
    %cmpi/e 1, 0, 1;
    %jmp/0xz  T_24.2, 4;
    %pushi/vec4 0, 0, 1;
    %assign/vec4 v0000022fbfaa91a0_0, 0;
    %pushi/vec4 0, 0, 1;
    %assign/vec4 v0000022fbfab4030_0, 0;
T_24.2 ;
T_24.0 ;
    %jmp T_24;
    .thread T_24;
    .scope S_0000022fbf8e80a0;
T_25 ;
    %wait E_0000022fbfa38350;
    %load/vec4 v0000022fbfaa7ee0_0;
    %pushi/vec4 1, 0, 1;
    %cmp/e;
    %flag_get/vec4 4;
    %load/vec4 v0000022fbfaa8200_0;
    %pushi/vec4 1, 0, 1;
    %cmp/e;
    %flag_get/vec4 4;
    %and;
    %flag_set/vec4 8;
    %jmp/0xz  T_25.0, 8;
    %pushi/vec4 0, 0, 32;
    %store/vec4 v0000022fbfaa8d40_0, 0, 32;
T_25.2 ;
    %load/vec4 v0000022fbfaa8d40_0;
    %cmpi/s 4, 0, 32;
    %jmp/0xz T_25.3, 5;
    %ix/getv/s 4, v0000022fbfaa8d40_0;
    %load/vec4a v0000022fbfaa8de0, 4;
    %addi 2, 0, 8;
    %ix/getv/s 3, v0000022fbfaa8d40_0;
    %ix/load 4, 0, 0; Constant delay
    %assign/vec4/a/d v0000022fbfaa8de0, 0, 4;
    %load/vec4 v0000022fbfaa8d40_0;
    %addi 1, 0, 32;
    %store/vec4 v0000022fbfaa8d40_0, 0, 32;
    %jmp T_25.2;
T_25.3 ;
    %pushi/vec4 1, 0, 1;
    %assign/vec4 v0000022fbfab4210_0, 0;
    %pushi/vec4 0, 0, 1;
    %assign/vec4 v0000022fbfaa7ee0_0, 0;
T_25.0 ;
    %jmp T_25;
    .thread T_25;
    .scope S_0000022fbf97ebe0;
T_26 ;
    %pushi/vec4 0, 1, 1;
    %store/vec4 v0000022fbf9f7130_0, 0, 1;
    %pushi/vec4 0, 1, 1;
    %store/vec4 v0000022fbf9f7e50_0, 0, 1;
    %pushi/vec4 0, 15, 4;
    %store/vec4 v0000022fbf9f6a50_0, 0, 4;
    %pushi/vec4 0, 1, 1;
    %store/vec4 v0000022fbf9f6050_0, 0, 1;
    %pushi/vec4 0, 1, 1;
